#  HZ   S   DB   R     50.0 
! Rohde & Schwarz ZVL 
! 
! 
! 
 2.025000000000000E9    -1.822869704128460  -1.693905428676088E2  
 2.029750000000000E9    -1.935380344971309  -1.659799490042237E2  
 2.034500000000000E9    -2.006248911731141  -1.703588096223720E2  
 2.039250000000000E9    -2.217756195960279  -1.664059967710136E2  
 2.044000000000000E9    -2.076661927756996  -1.736027620307680E2  
 2.048750000000000E9    -1.385462581160705  -1.709817912011139E2  
 2.053500000000000E9    -1.679870591136853  -1.745858541662046E2  
 2.058250000000000E9    -1.287306825969420  -1.755499236852786E2  
 2.063000000000000E9    -2.285561293458369  -1.767464862812299E2  
 2.067750000000000E9    -1.452133552188438   1.776310155806849E2  
 2.072500000000000E9    -2.183043850662598   1.781763937156909E2  
 2.077250000000000E9    -1.879556127269226   1.746666535790037E2  
 2.082000000000000E9    -2.094671007491396   1.721224140632408E2  
 2.086750000000000E9    -1.979024217995655   1.718709298373188E2  
 2.091500000000000E9    -2.347674786673872   1.734004902585878E2  
 2.096250000000000E9    -2.232389168134834   1.743819957756237E2  
 2.101000000000000E9    -1.601426512005964   1.702440042697469E2  
 2.105750000000000E9    -2.110032623257438   1.627029923817812E2  
 2.110500000000000E9    -2.529235897346691   1.582988319803260E2  
 2.115250000000000E9    -1.980869303368062   1.599868187684131E2  
 2.120000000000000E9    -2.082710860493415   1.593924467122992E2  
 2.124750000000000E9    -2.858447525110140   1.585041831268952E2  
 2.129500000000000E9    -2.778067391205940   1.578821811131947E2  
 2.134250000000000E9    -2.737063386071652   1.497662549426575E2  
 2.139000000000000E9    -2.488308331069240   1.505168631144633E2  
 2.143750000000000E9    -2.786182594953344   1.516492787277016E2  
 2.148500000000000E9    -2.743078249180561   1.487566378705012E2  
 2.153250000000000E9    -3.012980221896657   1.469133237596375E2  
 2.158000000000000E9    -2.621052959419476   1.473127946941513E2  
 2.162750000000000E9    -2.818663437113155   1.417045751376996E2  
 2.167500000000000E9    -3.356327433162404   1.394938285304658E2  
 2.172250000000000E9    -2.965731930832414   1.399087153353865E2  
 2.177000000000000E9    -3.078870845908064   1.358703181035589E2  
 2.181750000000000E9    -2.907211925072569   1.330013880161762E2  
 2.186500000000000E9    -3.114968475013839   1.327390989547434E2  
 2.191250000000000E9    -3.356290538248459   1.282845872370981E2  
 2.196000000000000E9    -3.339819433449792   1.271688655056202E2  
 2.200750000000000E9    -3.564098043767472   1.270299644515500E2  
 2.205500000000000E9    -3.857413391715332   1.190877586721860E2  
 2.210250000000000E9    -3.813810892493737   1.183729330026391E2  
 2.215000000000000E9    -3.479302295174015   1.172180394091790E2  
 2.219750000000000E9    -3.939067690558986   1.169987275928600E2  
 2.224500000000000E9    -4.015991186639988   1.137853941044558E2  
 2.229250000000000E9    -4.382681791845423   1.151728631858117E2  
 2.234000000000000E9    -4.756142443783860   1.112185840832457E2  
 2.238750000000000E9    -3.566429726978168   1.011122187706257E2  
 2.243500000000000E9    -4.285423146187885   1.104241289185273E2  
 2.248250000000000E9    -4.297823764420220   9.993515629304467E1  
 2.253000000000000E9    -4.857406028805491   9.822399567590740E1  
 2.257750000000000E9    -4.468102208158053   9.958709397445040E1  
 2.262500000000000E9    -5.067256644267480   9.402090221462306E1  
 2.267250000000000E9    -4.923058440632371   9.286024500373969E1  
 2.272000000000000E9    -4.998725699574482   9.408323898146742E1  
 2.276750000000000E9    -5.193685034304203   8.980142722171465E1  
 2.281500000000000E9    -5.306306367653369   8.414707767122414E1  
 2.286250000000000E9    -5.250319726779778   7.809958806043765E1  
 2.291000000000000E9    -5.376606089662241   7.742220510517569E1  
 2.295750000000000E9    -6.340390887037246   8.448762322874521E1  
 2.300500000000000E9    -6.427738424535207   7.180342835705282E1  
 2.305250000000000E9    -6.757730877803494   7.306176433802750E1  
 2.310000000000000E9    -6.969550325166552   7.610204713197484E1  
 2.314750000000000E9    -6.327622611776215   6.627147024580542E1  
 2.319500000000000E9    -7.072232544898858   5.473836324754502E1  
 2.324250000000000E9    -8.078516000267223   5.866433162456375E1  
 2.329000000000000E9    -7.944662155342210   5.364178349874631E1  
 2.333750000000000E9    -7.612829339041227   4.985199260709972E1  
 2.338500000000000E9    -7.942280753888670   5.182490223183012E1  
 2.343250000000000E9    -8.845424119720045   4.955265541141370E1  
 2.348000000000000E9    -7.326388515433971   4.900137966978642E1  
 2.352750000000000E9    -8.668831472014169   3.258149505614957E1  
 2.357500000000000E9    -9.623096214395151   4.404711221518806E1  
 2.362250000000000E9    -9.988137331624714   3.166193073290362E1  
 2.367000000000000E9    -1.049856510888792E1   3.063925200642580E1  
 2.371750000000000E9    -9.832081348328966   3.287343514388390E1  
 2.376500000000000E9    -9.505902515789517   2.912318242154790E1  
 2.381250000000000E9    -1.001295900930709E1   9.716862201687896  
 2.386000000000000E9    -1.170383243320936E1   2.190466928967936E1  
 2.390750000000000E9    -1.127615538976834E1   1.327431210093750E1  
 2.395500000000000E9    -1.119143779746871E1   2.018814867864296E1  
 2.400250000000000E9    -1.108465160556135E1   6.704624751954889  
 2.405000000000000E9    -1.282145811808190E1   3.632018947530544  
 2.409750000000000E9    -1.077941014062360E1   5.127866612151750  
 2.414500000000000E9    -1.279986301481300E1  -3.648519073149535  
 2.419250000000000E9    -1.416374536569549E1   4.573152101842983  
 2.424000000000000E9    -1.281828073558290E1  -8.375613959152311  
 2.428750000000000E9    -1.559364672607425E1  -1.486547101335986E1  
 2.433500000000000E9    -1.461824249552645E1  -1.155678350117107E1  
 2.438250000000000E9    -1.274030668823433E1  -1.492249858900948E1  
 2.443000000000000E9    -1.467868749329135E1  -1.856018351426621E1  
 2.447750000000000E9    -1.417595423326541E1  -3.035090817696386E1  
 2.452500000000000E9    -1.667398046048745E1  -3.933394096413778E1  
 2.457250000000000E9    -1.507869254153966E1  -3.779605608515058E1  
 2.462000000000000E9    -1.358141464713560E1  -4.554082619246050E1  
 2.466750000000000E9    -1.493379679301276E1  -2.685870777991547E1  
 2.471500000000000E9    -1.708576442330634E1  -5.011575158199659E1  
 2.476250000000000E9    -1.957587804475482E1  -2.620096684025843E1  
 2.481000000000000E9    -1.636188854258413E1  -7.314963718589752E1  
 2.485750000000000E9    -1.711747708181147E1  -5.302858158258105E1  
 2.490500000000000E9    -1.919471090263044E1  -7.118624620064917E1  
 2.495250000000000E9    -1.522515761780902E1  -5.015931607355373E1  
 2.500000000000000E9    -1.635120779666176E1  -5.684999538117553E1  
 2.504750000000000E9    -1.795203608682328E1  -5.903217215262012E1  
 2.509500000000000E9    -1.523996489593346E1  -7.505336152293789E1  
 2.514250000000000E9    -1.751887566634680E1  -8.801686178396889E1  
 2.519000000000000E9    -1.772718286576021E1  -7.374738077706131E1  
 2.523750000000000E9    -1.694806183955488E1  -8.857727268083710E1  
 2.528500000000000E9    -2.131946994888994E1  -8.305314016930781E1  
 2.533250000000000E9    -1.903766296180542E1  -9.687236308384323E1  
 2.538000000000000E9    -1.965489152683911E1  -1.134685734704406E2  
 2.542750000000000E9    -1.735157242576765E1  -1.178802346157518E2  
 2.547500000000000E9    -1.801765034610851E1  -9.118059922945234E1  
 2.552250000000000E9    -1.535910563060322E1  -1.215862817230143E2  
 2.557000000000000E9    -1.765482232580205E1  -1.049407146152967E2  
 2.561750000000000E9    -1.632940537228745E1  -1.198804292888950E2  
 2.566500000000000E9    -1.751339371877922E1  -1.135096022255596E2  
 2.571250000000000E9    -1.439049213863460E1  -1.466500642984073E2  
 2.576000000000000E9    -1.749274471759507E1  -1.486565956825375E2  
 2.580750000000000E9    -1.697495570594300E1  -1.191092797600480E2  
 2.585500000000000E9    -1.685795805477045E1  -1.506466307500611E2  
 2.590250000000000E9    -1.472789025608032E1  -1.588045534076468E2  
 2.595000000000000E9    -1.409671356320033E1  -1.597492686149127E2  
 2.599750000000000E9    -1.618813639824481E1  -1.753761246625067E2  
 2.604500000000000E9    -1.543591021370345E1  -1.657613063309767E2  
 2.609250000000000E9    -1.558094431839249E1  -1.625977460415957E2  
 2.614000000000000E9    -1.385522271282155E1  -1.620528670138275E2  
 2.618750000000000E9    -1.522705967480684E1  -1.744688150624907E2  
 2.623500000000000E9    -1.658478395686080E1   1.759515267962519E2  
 2.628250000000000E9    -1.540266874342400E1  -1.751889245997527E2  
 2.633000000000000E9    -1.437165066480602E1   1.757079846299788E2  
 2.637750000000000E9    -1.422774719744960E1   1.679715366725417E2  
 2.642500000000000E9    -1.610125367028779E1   1.782391942144861E2  
 2.647250000000000E9    -1.316750050705432E1   1.553014713477242E2  
 2.652000000000000E9    -1.478501758539158E1   1.517393942999415E2  
 2.656750000000000E9    -1.198453522739103E1   1.520457281771956E2  
 2.661500000000000E9    -1.367888290011161E1   1.531941326102663E2  
 2.666250000000000E9    -1.484365991995667E1   1.386695267583929E2  
 2.671000000000000E9    -1.260990707948966E1   1.365760447457321E2  
 2.675750000000000E9    -1.362918570422630E1   1.544125310249683E2  
 2.680500000000000E9    -1.434205980678305E1   1.307427167530036E2  
 2.685250000000000E9    -1.276327609148080E1   1.331666954948518E2  
 2.690000000000000E9    -1.445741814073436E1   1.314485095605111E2  
 2.694750000000000E9    -1.207684150417041E1   1.331852191176037E2  
 2.699500000000000E9    -1.213814212569709E1   1.193360770305571E2  
 2.704250000000000E9    -1.526513913240377E1   1.180941011253247E2  
 2.709000000000000E9    -1.134128715472289E1   1.098043227697779E2  
 2.713750000000000E9    -1.246099955864264E1   1.091766438497728E2  
 2.718500000000000E9    -1.146727003147308E1   1.032319867526908E2  
 2.723250000000000E9    -1.182207205440912E1   1.055136071788649E2  
 2.728000000000000E9    -1.047932522044910E1   9.873110100351954E1  
 2.732750000000000E9    -1.302436671927375E1   9.578101368952231E1  
 2.737500000000000E9    -1.140075966501787E1   9.158410763384808E1  
 2.742250000000000E9    -1.003264529101669E1   9.805974455238882E1  
 2.747000000000000E9    -1.045367594156381E1   9.143307507001838E1  
 2.751750000000000E9    -1.146568962422257E1   9.389795747395510E1  
 2.756500000000000E9    -1.044437429198381E1   7.314801665982434E1  
 2.761250000000000E9    -1.156726458013973E1   8.273159614795951E1  
 2.766000000000000E9    -1.034723663124249E1   7.534289037325409E1  
 2.770750000000000E9    -1.117808258983508E1   7.235644848015814E1  
 2.775500000000000E9    -1.264333181025554E1   7.358192224739500E1  
 2.780250000000000E9    -1.077864481718558E1   7.823703852355607E1  
 2.785000000000000E9    -1.089746263145492E1   7.266571391321332E1  
 2.789750000000000E9    -1.233427926374515E1   7.124695458173652E1  
 2.794500000000000E9    -1.124488696276086E1   6.585162398489673E1  
 2.799250000000000E9    -9.646235207992392   6.380447973773302E1  
 2.804000000000000E9    -9.695109162279515   5.727298134871569E1  
 2.808750000000000E9    -9.361842139359228   5.253311097048341E1  
 2.813500000000000E9    -1.084813066735426E1   4.981240018997347E1  
 2.818250000000000E9    -9.901113402548294   4.496299241643877E1  
 2.823000000000000E9    -9.069840825599643   4.882523786768898E1  
 2.827750000000000E9    -8.866205813567404   4.415704168113313E1  
 2.832500000000000E9    -9.299861885475053   4.381454013092145E1  
 2.837250000000000E9    -9.716687999832550   3.848921175262208E1  
 2.842000000000000E9    -6.727243426623470   3.684450636123192E1  
 2.846750000000000E9    -8.668828376350026   3.544873958259955E1  
 2.851500000000000E9    -1.005169123399515E1   3.648435955497589E1  
 2.856250000000000E9    -8.051991923427497   2.442268271550936E1  
 2.861000000000000E9    -7.851010511979771   2.491217339611939E1  
 2.865750000000000E9    -8.559680391872826   2.147075756944853E1  
 2.870500000000000E9    -9.801575888362089   1.546256271166750E1  
 2.875250000000000E9    -7.417905303577952   1.510603471602795E1  
 2.880000000000000E9    -7.937919132175126   1.797307098711590E1  
 2.884750000000000E9    -8.679116426347010   1.871218095393633E1  
 2.889500000000000E9    -7.845965191070633   1.651026569241823E1  
 2.894250000000000E9    -8.534485964344388   1.417403119148991E1  
 2.899000000000000E9    -8.508461798161113   8.422011142916990  
 2.903750000000000E9    -7.630448257198229   7.467752887232139  
 2.908500000000000E9    -7.230608140958974   7.124720949127722  
 2.913250000000000E9    -8.020860228559105   4.528716271906364  
 2.918000000000000E9    -8.374202132378285  -3.398318764628248  
 2.922750000000000E9    -7.830169713378038   3.186989914290609  
 2.927500000000000E9    -7.494013941552508  -6.168257538390646  
 2.932250000000000E9    -6.831805484827113  -8.922662720560624  
 2.937000000000000E9    -6.973216735505055  -5.606619518485732  
 2.941750000000000E9    -7.076208511766747  -1.341027754739627E1  
 2.946500000000000E9    -7.092204965322916  -8.152910106079411  
 2.951250000000000E9    -7.295516110505532  -1.005021545845395E1  
 2.956000000000000E9    -7.296930054879526  -2.174499585721589E1  
 2.960750000000000E9    -8.646906082531391  -1.701892586245051E1  
 2.965500000000000E9    -7.528047237819830  -1.607932332421623E1  
 2.970250000000000E9    -7.849612805415753  -2.078207485814092E1  
 2.975000000000000E9    -7.076123094541106  -2.098148603978054E1  
