#  HZ   S   DB   R     50.0 
! Rohde & Schwarz ZVL 
! 
! 
! 
 5.000000000000000E8    -1.206055501553978  -3.865737079188995E1  
 5.100000000000000E8    -1.341902898466057  -7.000660241224364E1  
 5.200000000000000E8    -1.467265341963589  -9.930326530969202E1  
 5.300000000000000E8    -1.552984175715876  -1.286000319424677E2  
 5.400000000000000E8    -1.472790196622857  -1.583336085831254E2  
 5.500000000000000E8    -1.423821837821248   1.703666701369307E2  
 5.600000000000000E8    -1.393776985072807   1.396829238859706E2  
 5.700000000000000E8    -1.441767476805946   1.096686027183174E2  
 5.800000000000000E8    -1.536631151323612   7.955170401059345E1  
 5.900000000000000E8    -1.446382733956186   5.044365065236003E1  
 6.000000000000000E8    -1.444850050826505   2.213311253884739E1  
 6.100000000000000E8    -1.298113294765824  -7.050014488512266  
 6.200000000000000E8    -1.294651873015315  -3.721402025855617E1  
 6.300000000000000E8    -1.338271564819930  -6.777100483196584E1  
 6.400000000000000E8    -1.496289403863144  -9.904754743215253E1  
 6.500000000000000E8    -1.613558057193458  -1.314963431581383E2  
 6.600000000000000E8    -1.751041775705657  -1.638333969397419E2  
 6.700000000000000E8    -1.958328811430384   1.632408626554136E2  
 6.800000000000000E8    -2.637356558280037   1.289995733589962E2  
 6.900000000000000E8    -3.371303045980805   9.926131112643478E1  
 7.000000000000000E8    -3.849378032643111   7.241288278157141E1  
 7.100000000000000E8    -4.237528676931940   4.624869547231981E1  
 7.200000000000000E8    -4.544348483886585   2.060350840183960E1  
 7.300000000000000E8    -4.518472364685434  -5.037840357565628  
 7.400000000000000E8    -4.492911052659531  -3.057978694928184E1  
 7.500000000000000E8    -4.355269733336795  -5.898292265871112E1  
 7.600000000000000E8    -4.261401726736370  -8.753321561483892E1  
 7.700000000000000E8    -4.302581826474240  -1.194142147532171E2  
 7.800000000000000E8    -4.481227132984548  -1.509443292086286E2  
 7.900000000000000E8    -4.714515807911456   1.776208142989199E2  
 8.000000000000000E8    -4.854294903520167   1.459913126573512E2  
 8.100000000000000E8    -5.048846234421756   1.152000776319648E2  
 8.200000000000000E8    -5.393922438745284   8.430571465266435E1  
 8.300000000000000E8    -5.870450421639337   5.576237020175710E1  
 8.400000000000000E8    -6.465103205443814   2.961672237413966E1  
 8.500000000000000E8    -7.113684386714835   4.371951717575842  
 8.600000000000000E8    -7.459810431704811  -1.819732848995238E1  
 8.700000000000000E8    -7.179428239399655  -4.201627143381854E1  
 8.800000000000000E8    -6.846900950337794  -6.607802019966999E1  
 8.900000000000000E8    -6.360473278893553  -9.359918205822416E1  
 9.000000000000000E8    -5.825621615766648  -1.226772592219794E2  
 9.100000000000000E8    -5.268213946237562  -1.531011983105508E2  
 9.200000000000000E8    -5.184995103647117   1.759153390158805E2  
 9.300000000000000E8    -4.958399898796683   1.449005127461278E2  
 9.400000000000000E8    -4.687321524700963   1.119802493147016E2  
 9.500000000000000E8    -4.603811710614792   8.004107743132461E1  
 9.600000000000000E8    -4.639428691200428   4.749172708331785E1  
 9.700000000000000E8    -4.658336988099126   1.779271150838586E1  
 9.800000000000000E8    -4.600200015562595  -1.163768480617932E1  
 9.900000000000000E8    -4.460050674402742  -3.907288356519563E1  
 1.000000000000000E9    -4.293707201744290  -6.852642621200097E1  
 1.010000000000000E9    -4.323870578630358  -9.856726343289404E1  
 1.020000000000000E9    -4.982294321449119  -1.286097549031059E2  
 1.030000000000000E9    -4.948458573167047  -1.625354769116374E2  
 1.040000000000000E9    -4.974439841530129   1.648188702292337E2  
 1.050000000000000E9    -5.245816723158367   1.320644405400834E2  
 1.060000000000000E9    -6.049037501209759   9.682230038978727E1  
 1.070000000000000E9    -7.524651616096231   6.427558896752888E1  
 1.080000000000000E9    -1.031733153269278E1   3.632665274571796E1  
 1.090000000000000E9    -1.310984576156701E1   3.365295516030453E1  
 1.100000000000000E9    -1.103605040966071E1   4.083211277879870E1  
 1.110000000000000E9    -7.334641376825453   1.832358751758232E1  
 1.120000000000000E9    -4.858305595092011  -1.770317681193057E1  
 1.130000000000000E9    -3.529062385619518  -5.327209012366381E1  
 1.140000000000000E9    -2.609125120792898  -9.131151498745602E1  
 1.150000000000000E9    -2.591013103122984  -1.245212912778886E2  
 1.160000000000000E9    -2.334123408253973  -1.604305848459888E2  
 1.170000000000000E9    -2.381855704399063   1.674020664462644E2  
 1.180000000000000E9    -2.292608303555169   1.345477524225909E2  
 1.190000000000000E9    -2.271460421814809   1.009884502929029E2  
 1.200000000000000E9    -2.237428720869162   6.533176962359497E1  
 1.210000000000000E9    -2.445889942658996   3.315074502825161E1  
 1.220000000000000E9    -2.584096310567049   8.318737100917382E-1  
 1.230000000000000E9    -2.880405149293715  -3.121580056840553E1  
 1.240000000000000E9    -3.066959880558966  -6.254514140069789E1  
 1.250000000000000E9    -3.172288143565142  -9.584192141999627E1  
 1.260000000000000E9    -3.681491465753561  -1.292327232423364E2  
 1.270000000000000E9    -4.357445499328915  -1.633078423097996E2  
 1.280000000000000E9    -5.051037382459781   1.617137709461336E2  
 1.290000000000000E9    -5.987257065502482   1.285864907751860E2  
 1.300000000000000E9    -7.519965858998430   9.394047997924798E1  
 1.310000000000000E9    -9.260573639017164   6.218901187227291E1  
 1.320000000000000E9    -1.081873959457536E1   4.603604263557370E1  
 1.330000000000000E9    -1.081620744698776E1   3.024099810330038E1  
 1.340000000000000E9    -9.423773398355342   7.710914838409360  
 1.350000000000000E9    -8.744692782152626  -2.449904489547343E1  
 1.360000000000000E9    -9.005074533957499  -5.567889988596571E1  
 1.370000000000000E9    -9.494863214993524  -9.126780107680939E1  
 1.380000000000000E9    -1.032539655733746E1  -1.252332178603662E2  
 1.390000000000000E9    -1.019462891431614E1  -1.609747788322956E2  
 1.400000000000000E9    -1.117834566821588E1   1.645582382995594E2  
 1.410000000000000E9    -1.167076701304707E1   1.331869932657736E2  
 1.420000000000000E9    -1.324192297713690E1   9.694270166933306E1  
 1.430000000000000E9    -1.486587908941549E1   6.987097884566744E1  
 1.440000000000000E9    -1.709319440708536E1   4.240263723757742E1  
 1.450000000000000E9    -2.021990364194899E1   3.101425849868864E1  
 1.460000000000000E9    -2.185089463852181E1   1.457196239712871E1  
 1.470000000000000E9    -2.252569333770600E1   4.241017724044280  
 1.480000000000000E9    -2.047781711878959E1  -1.198183314949151E1  
 1.490000000000000E9    -1.905515065803329E1  -2.390485523812643E1  
 1.500000000000000E9    -1.787347542464193E1  -4.382556818072366E1  
 1.510000000000000E9    -1.603279670080222E1  -6.994128323593687E1  
 1.520000000000000E9    -1.480375457287984E1  -1.016447123591160E2  
 1.530000000000000E9    -1.399974241354281E1  -1.337949612673341E2  
 1.540000000000000E9    -1.316670865165910E1  -1.628249868292941E2  
 1.550000000000000E9    -1.294891965152972E1   1.667691616815579E2  
 1.560000000000000E9    -1.266616611483748E1   1.358593490450950E2  
 1.570000000000000E9    -1.268679377229157E1   1.062881441693382E2  
 1.580000000000000E9    -1.232740153388395E1   8.104809769312286E1  
 1.590000000000000E9    -1.129273937258110E1   5.283185101500510E1  
 1.600000000000000E9    -1.085910652343590E1   2.472640583662711E1  
 1.610000000000000E9    -9.974236331152559   2.237996303509144E-1  
 1.620000000000000E9    -9.053644284448474  -2.745058993385469E1  
 1.630000000000000E9    -8.704520506468603  -5.766698633602401E1  
 1.640000000000000E9    -8.301203507085736  -8.619977076133758E1  
 1.650000000000000E9    -8.081912216310201  -1.182254829320985E2  
 1.660000000000000E9    -7.718045747308276  -1.509546664801536E2  
 1.670000000000000E9    -7.299883301430338   1.779710445175252E2  
 1.680000000000000E9    -6.640808465846861   1.467831291243010E2  
 1.690000000000000E9    -6.159716290860856   1.141239851516257E2  
 1.700000000000000E9    -5.775286231628067   8.479038466876882E1  
 1.710000000000000E9    -5.449578482220590   5.512715899439250E1  
 1.720000000000000E9    -4.940067881476626   2.483570577845743E1  
 1.730000000000000E9    -4.792589193973388  -6.054021638103604  
 1.740000000000000E9    -4.749252741712732  -3.791177497027967E1  
 1.750000000000000E9    -4.544163961498543  -7.050482320743784E1  
 1.760000000000000E9    -4.541298260716885  -1.060298600991343E2  
 1.770000000000000E9    -4.875606922101713  -1.439757284739705E2  
 1.780000000000000E9    -5.010632923289267  -1.797898040689574E2  
 1.790000000000000E9    -5.714625653276910   1.424856770713005E2  
 1.800000000000000E9    -6.611127805640175   1.077720931674501E2  
 1.810000000000000E9    -8.099502831642315   7.339634969045814E1  
 1.820000000000000E9    -9.544557791721720   4.276391869616094E1  
 1.830000000000000E9    -1.157792644467327E1   1.493080924060960E1  
 1.840000000000000E9    -1.376221958289195E1  -6.183240811316011  
 1.850000000000000E9    -1.537158815903349E1  -2.239974741131829E1  
 1.860000000000000E9    -1.512968289811293E1  -3.857960115289256E1  
 1.870000000000000E9    -1.524945952026934E1  -5.864207365782747E1  
 1.880000000000000E9    -1.525283054926302E1  -7.913959654639682E1  
 1.890000000000000E9    -1.510069255135862E1  -1.012139929136459E2  
 1.900000000000000E9    -1.489360043134179E1  -1.254248307497758E2  
 1.910000000000000E9    -1.451895759852464E1  -1.511562031648667E2  
 1.920000000000000E9    -1.434406873631405E1   1.733023106005139E2  
 1.930000000000000E9    -1.403466536278950E1   1.412697038191795E2  
 1.940000000000000E9    -1.249728352800056E1   1.096864436616063E2  
 1.950000000000000E9    -1.140009021543362E1   7.889188200194731E1  
 1.960000000000000E9    -1.072614062309614E1   5.111458411937428E1  
 1.970000000000000E9    -1.043032430949577E1   2.114849560259565E1  
 1.980000000000000E9    -9.967444284515970  -4.974777594842209  
 1.990000000000000E9    -9.963039286779612  -3.282519816771515E1  
 2.000000000000000E9    -1.017336196600218E1  -6.176083443167744E1  
 2.010000000000000E9    -1.034124006889557E1  -9.298944632052792E1  
 2.020000000000000E9    -1.014680381440024E1  -1.269141054464349E2  
 2.030000000000000E9    -1.033740983873413E1  -1.592962438984783E2  
 2.040000000000000E9    -9.856922357793119   1.694794636565069E2  
 2.050000000000000E9    -9.348430857508674   1.368363499590231E2  
 2.060000000000000E9    -8.756312697378688   1.042810564168496E2  
 2.070000000000000E9    -8.685393929061226   7.394506957624891E1  
 2.080000000000000E9    -8.382350851954108   4.478870419065937E1  
 2.090000000000000E9    -8.313561456261622   1.716362114205792E1  
 2.100000000000000E9    -8.286710974143105  -1.009213870809325E1  
 2.110000000000000E9    -8.058054240588870  -4.077042951906478E1  
 2.120000000000000E9    -8.185262181282301  -7.036692456785360E1  
 2.130000000000000E9    -8.131578293094632  -9.777984362157795E1  
 2.140000000000000E9    -8.069671682623241  -1.260834214082187E2  
 2.150000000000000E9    -8.175063373743143  -1.560395223052838E2  
 2.160000000000000E9    -8.200145634445597   1.733073054025670E2  
 2.170000000000000E9    -8.221804615028489   1.415823391772089E2  
 2.180000000000000E9    -8.428076034193643   1.088315952527170E2  
 2.190000000000000E9    -8.492426567227495   7.713775018534174E1  
 2.200000000000000E9    -8.479386135946593   4.585584496199166E1  
 2.210000000000000E9    -8.212323629723670   2.024596958989994E1  
 2.220000000000000E9    -7.864895668931603  -8.041227321697546  
 2.230000000000000E9    -7.990187217320623  -3.563093842090867E1  
 2.240000000000000E9    -8.458503200084376  -5.996467141749513E1  
 2.250000000000000E9    -8.794608641229898  -8.231163744875019E1  
 2.260000000000000E9    -8.887433478526575  -1.058442431825215E2  
 2.270000000000000E9    -9.053338847010215  -1.309046639040139E2  
 2.280000000000000E9    -9.076426305473298  -1.618924212265959E2  
 2.290000000000000E9    -9.316115116040885   1.648125749918776E2  
 2.300000000000000E9    -9.173880330040413   1.346139363466992E2  
 2.310000000000000E9    -8.588308900789572   1.004411525221754E2  
 2.320000000000000E9    -8.203702966260098   6.783887720459751E1  
 2.330000000000000E9    -8.056686836515940   3.679501832291810E1  
 2.340000000000000E9    -7.931167433382971   7.859798714322333  
 2.350000000000000E9    -8.002665738139916  -2.064544854531177E1  
 2.360000000000000E9    -7.909137224183382  -4.755033443896967E1  
 2.370000000000000E9    -8.035909016636378  -7.507288771448501E1  
 2.380000000000000E9    -8.376104286793161  -1.053011369301680E2  
 2.390000000000000E9    -8.709812639837832  -1.351120047169557E2  
 2.400000000000000E9    -8.872769672383596  -1.653842996573965E2  
 2.410000000000000E9    -9.134229865473134   1.627029255741055E2  
 2.420000000000000E9    -9.459006784236642   1.320152338836694E2  
 2.430000000000000E9    -9.813081158657719   9.729374422842193E1  
 2.440000000000000E9    -9.815062106149251   6.415611937508096E1  
 2.450000000000000E9    -9.559863554251219   3.299457185579698E1  
 2.460000000000000E9    -9.231211812631790   1.577440025247162E-2  
 2.470000000000000E9    -8.691159409776500  -3.090756583410454E1  
 2.480000000000000E9    -8.437739744033051  -6.053251531801452E1  
 2.490000000000000E9    -8.215288950292630  -8.856521500682472E1  
 2.500000000000000E9    -8.244757630242145  -1.168081764820518E2  
 2.510000000000000E9    -8.330203544035570  -1.439041710042411E2  
 2.520000000000000E9    -8.723154648247846  -1.742013877284419E2  
 2.530000000000000E9    -9.000116584798679   1.523179586137229E2  
 2.540000000000000E9    -9.290221784987955   1.197967809565238E2  
 2.550000000000000E9    -9.159315785010540   8.440029239821776E1  
 2.560000000000000E9    -9.055183679098947   4.982717091535471E1  
 2.570000000000000E9    -8.497760769682094   1.878987286911452E1  
 2.580000000000000E9    -7.853494313735139  -9.872146161959126  
 2.590000000000000E9    -7.543877941657092  -3.875251353187404E1  
 2.600000000000000E9    -7.573429784425869  -6.744752897448588E1  
 2.610000000000000E9    -7.920238607045549  -9.192634322103797E1  
 2.620000000000000E9    -7.873810668799255  -1.193285082037997E2  
 2.630000000000000E9    -8.180016572579255  -1.491363447009096E2  
 2.640000000000000E9    -8.466358125825668   1.799136635756640E2  
 2.650000000000000E9    -8.788812569977701   1.492479487555625E2  
 2.660000000000000E9    -9.393485117540651   1.173291008305819E2  
 2.670000000000000E9    -9.460080062515631   8.693643619018653E1  
 2.680000000000000E9    -9.395699972848556   5.409407454401336E1  
 2.690000000000000E9    -9.412060262836709   2.299473513971255E1  
 2.700000000000000E9    -9.190454365179571  -7.149993993209213  
 2.710000000000000E9    -9.164753824594323  -3.720675288675167E1  
 2.720000000000000E9    -9.299036751728998  -6.589025338543293E1  
 2.730000000000000E9    -9.332724152523207  -9.393059244770853E1  
 2.740000000000000E9    -9.600515305332523  -1.212984955429254E2  
 2.750000000000000E9    -9.472720998151983  -1.478703600109264E2  
 2.760000000000000E9    -1.004047235617867E1  -1.775690298866059E2  
 2.770000000000000E9    -1.030717670597663E1   1.544604225503902E2  
 2.780000000000000E9    -1.129483729093877E1   1.210426206730648E2  
 2.790000000000000E9    -1.207165690378460E1   8.824554297769549E1  
 2.800000000000000E9    -1.265444750016226E1   5.031185176626540E1  
 2.810000000000000E9    -1.280475620724166E1   1.842159476981302E1  
 2.820000000000000E9    -1.233265998308737E1  -1.876678536587272E1  
 2.830000000000000E9    -1.200141795137626E1  -5.265136251200460E1  
 2.840000000000000E9    -1.188406415154624E1  -8.137518541969918E1  
 2.850000000000000E9    -1.171869291051845E1  -1.093224161931725E2  
 2.860000000000000E9    -1.168832292998720E1  -1.384753951886719E2  
 2.870000000000000E9    -1.252181750356293E1  -1.688751663899121E2  
 2.880000000000000E9    -1.343949510280411E1   1.586423358026130E2  
 2.890000000000000E9    -1.412690547774068E1   1.245490544820360E2  
 2.900000000000000E9    -1.486225336237173E1   8.736651454826790E1  
 2.910000000000000E9    -1.509781018048518E1   4.909478513669453E1  
 2.920000000000000E9    -1.434422768510807E1   1.316728112422745E1  
 2.930000000000000E9    -1.379353871702047E1  -2.088205284602119E1  
