#  HZ   S   DB   R     50.0 
! Rohde & Schwarz ZVL 
! 
! 
! 
 5.000000000000000E8    -6.374492317058540   6.822998955207183  
 5.100000000000000E8    -6.404547647938789  -1.873960214511510E1  
 5.200000000000000E8    -6.358650454086358  -4.506083003962953E1  
 5.300000000000000E8    -6.382346586259740  -7.420305626250597E1  
 5.400000000000000E8    -6.283757034170838  -1.026939603418049E2  
 5.500000000000000E8    -6.160899338629884  -1.324309605423952E2  
 5.600000000000000E8    -6.236671029996778  -1.643666448496799E2  
 5.700000000000000E8    -6.360733608716257   1.635083469331194E2  
 5.800000000000000E8    -6.733360361579394   1.310778596717164E2  
 5.900000000000000E8    -7.478978792105667   9.863418104582519E1  
 6.000000000000000E8    -8.849970922460788   6.836601436710312E1  
 6.100000000000000E8    -1.018300659555402E1   4.550789923706520E1  
 6.200000000000000E8    -1.068650969421917E1   2.464761508442913E1  
 6.300000000000000E8    -1.053454146548632E1   1.980707140996861  
 6.400000000000000E8    -1.002972776070393E1  -2.383942115841785E1  
 6.500000000000000E8    -1.004724303409408E1  -5.613665270233490E1  
 6.600000000000000E8    -1.027901295495299E1  -8.952512558153470E1  
 6.700000000000000E8    -1.155666521722576E1  -1.248615449966323E2  
 6.800000000000000E8    -1.307426415091781E1  -1.603165929849769E2  
 6.900000000000000E8    -1.630116825452714E1   1.644096978903554E2  
 7.000000000000000E8    -1.973358112332447E1   1.412018036589267E2  
 7.100000000000000E8    -2.359606238440719E1   1.397105482663621E2  
 7.200000000000000E8    -2.259838086472809E1   1.380816447820568E2  
 7.300000000000000E8    -1.959829222695409E1   1.128348758219605E2  
 7.400000000000000E8    -1.768577082763439E1   8.084796405675606E1  
 7.500000000000000E8    -1.692088428846039E1   4.388373308056943E1  
 7.600000000000000E8    -1.694618884378190E1   1.059960309280955E1  
 7.700000000000000E8    -1.825806787332449E1  -2.091973467104727E1  
 7.800000000000000E8    -1.999438119012347E1  -4.781368380951864E1  
 7.900000000000000E8    -2.222849686693385E1  -6.448410470724797E1  
 8.000000000000000E8    -2.399532829535989E1  -6.440644053590370E1  
 8.100000000000000E8    -2.203419676604941E1  -7.307140474703931E1  
 8.200000000000000E8    -1.975616473812467E1  -9.889953698067546E1  
 8.300000000000000E8    -1.864847268166982E1  -1.288725917634419E2  
 8.400000000000000E8    -1.764380098403409E1  -1.635511362425515E2  
 8.500000000000000E8    -1.737062154056579E1   1.630885199870439E2  
 8.600000000000000E8    -1.833970798710015E1   1.243492634775287E2  
 8.700000000000000E8    -1.917063530118466E1   9.015883945780266E1  
 8.800000000000000E8    -2.012729935447320E1   5.969186608987972E1  
 8.900000000000000E8    -2.091009032920104E1   3.176235185218685E1  
 9.000000000000000E8    -2.122986585501110E1   1.459117378270079E1  
 9.100000000000000E8    -1.996850472243288E1  -6.047826509815905E-1  
 9.200000000000000E8    -1.820886420722012E1  -2.087720658644013E1  
 9.300000000000000E8    -1.665253613639709E1  -4.256286340602569E1  
 9.400000000000000E8    -1.518422953198565E1  -6.986800357456693E1  
 9.500000000000000E8    -1.453434759810753E1  -9.743113889039825E1  
 9.600000000000000E8    -1.402630387397168E1  -1.271077099099163E2  
 9.700000000000000E8    -1.416197827645605E1  -1.566109859536219E2  
 9.800000000000000E8    -1.426322201181848E1   1.723994541941710E2  
 9.900000000000000E8    -1.447461706791183E1   1.411593225848858E2  
 1.000000000000000E9    -1.454805859842649E1   1.139711337676871E2  
 1.010000000000000E9    -1.513830492817403E1   9.172874333607426E1  
 1.020000000000000E9    -1.474952715565901E1   7.294950739178621E1  
 1.030000000000000E9    -1.487210721411510E1   4.685580896548247E1  
 1.040000000000000E9    -1.378272441753051E1   2.627911358746769E1  
 1.050000000000000E9    -1.207881566570872E1  -4.774775907810250E-1  
 1.060000000000000E9    -1.175321382775498E1  -3.020284819273288E1  
 1.070000000000000E9    -1.106122668016262E1  -5.793114089254947E1  
 1.080000000000000E9    -1.020350836062986E1  -8.603804177925301E1  
 1.090000000000000E9    -1.022768030965929E1  -1.173653358610985E2  
 1.100000000000000E9    -1.000137821101539E1  -1.437396910556819E2  
 1.110000000000000E9    -9.731009489289438  -1.662488382694655E2  
 1.120000000000000E9    -1.039619950568680E1   1.753669415312269E2  
 1.130000000000000E9    -1.006452456916097E1   1.523715222869161E2  
 1.140000000000000E9    -9.088325525054042   1.310589320251549E2  
 1.150000000000000E9    -8.459314473785701   1.078490763902485E2  
 1.160000000000000E9    -8.007537659444690   7.772357328219711E1  
 1.170000000000000E9    -7.139560431053106   4.809549233422464E1  
 1.180000000000000E9    -6.980599945090102   1.672197963810831E1  
 1.190000000000000E9    -7.127571936798612  -9.563923163179982  
 1.200000000000000E9    -7.393935528866167  -3.704901350528741E1  
 1.210000000000000E9    -7.713809269318664  -6.555987232806217E1  
 1.220000000000000E9    -7.959306349912096  -8.468103138843392E1  
 1.230000000000000E9    -7.320411987156928  -1.033947081014808E2  
 1.240000000000000E9    -6.283676658938449  -1.269342611604791E2  
 1.250000000000000E9    -5.331084072804845  -1.516394377375571E2  
 1.260000000000000E9    -5.028372589017494  -1.795428818882405E2  
 1.270000000000000E9    -4.495689263136531   1.510090597177844E2  
 1.280000000000000E9    -4.738563289235481   1.214612758767701E2  
 1.290000000000000E9    -4.667842154384559   9.191492999850377E1  
 1.300000000000000E9    -5.115626735186186   6.814529583567922E1  
 1.310000000000000E9    -5.429693069196651   4.476525175052665E1  
 1.320000000000000E9    -5.193243523194035   2.174020404296338E1  
 1.330000000000000E9    -4.619304766189694   2.642200268778651E-1  
 1.340000000000000E9    -4.170915047382775  -2.535121874016759E1  
 1.350000000000000E9    -3.938217874980768  -4.955134306305958E1  
 1.360000000000000E9    -3.797673372804818  -7.867333411755061E1  
 1.370000000000000E9    -3.755775929789696  -1.043400295823911E2  
 1.380000000000000E9    -3.920249383383663  -1.297397828900724E2  
 1.390000000000000E9    -3.822472097471383  -1.575297013220969E2  
 1.400000000000000E9    -3.751632729674460   1.764489692478450E2  
 1.410000000000000E9    -3.823366233734739   1.514086814319656E2  
 1.420000000000000E9    -3.686124607762493   1.274200834934925E2  
 1.430000000000000E9    -3.301715307857355   1.043465895077609E2  
 1.440000000000000E9    -3.220175578972921   7.902882183711893E1  
 1.450000000000000E9    -3.025012042830118   5.372760386275008E1  
 1.460000000000000E9    -2.919506190993916   2.983850966632334E1  
 1.470000000000000E9    -2.953315297285852   4.850498055970902  
 1.480000000000000E9    -2.948308241059905  -1.989694038876464E1  
 1.490000000000000E9    -2.900656289707858  -4.700768522940348E1  
 1.500000000000000E9    -3.113275650705064  -7.162533869013126E1  
 1.510000000000000E9    -3.464932069048314  -9.624463383814855E1  
 1.520000000000000E9    -3.444948377082466  -1.205617344850061E2  
 1.530000000000000E9    -3.472416356018660  -1.448411000338142E2  
 1.540000000000000E9    -3.102461212108000  -1.691901500836464E2  
 1.550000000000000E9    -2.780283716872640   1.662609245646841E2  
 1.560000000000000E9    -2.519727873226261   1.407659740932027E2  
 1.570000000000000E9    -2.415821141278943   1.142142335469285E2  
 1.580000000000000E9    -2.433361605096075   8.762079390004796E1  
 1.590000000000000E9    -2.484415851347155   6.363457454588406E1  
 1.600000000000000E9    -2.689457077478666   3.950255268267176E1  
 1.610000000000000E9    -2.818059134349483   1.568825331152307E1  
 1.620000000000000E9    -2.772273918033150  -7.777388992674510  
 1.630000000000000E9    -2.642115780760580  -3.118085178733472E1  
 1.640000000000000E9    -2.530734106728777  -5.505686582463167E1  
 1.650000000000000E9    -2.466257120770243  -8.026999762313470E1  
 1.660000000000000E9    -2.332116648500781  -1.041305450635340E2  
 1.670000000000000E9    -2.369808415514921  -1.294629505963344E2  
 1.680000000000000E9    -2.589251236361488  -1.532611612831978E2  
 1.690000000000000E9    -2.691891078480527  -1.789694196364002E2  
 1.700000000000000E9    -2.807204673768238   1.567729707562361E2  
 1.710000000000000E9    -2.831702197253549   1.315890003423685E2  
 1.720000000000000E9    -2.732172252124133   1.070262587376541E2  
 1.730000000000000E9    -2.549926880667791   8.059229752692643E1  
 1.740000000000000E9    -2.357923189823005   5.478960051642839E1  
 1.750000000000000E9    -2.237634752816756   2.973004400132881E1  
 1.760000000000000E9    -2.272507731533064   4.254960380323397  
 1.770000000000000E9    -2.400790467286168  -1.904223954632465E1  
 1.780000000000000E9    -2.401884828649196  -4.116768636861860E1  
 1.790000000000000E9    -2.459846152045357  -6.299396792533957E1  
 1.800000000000000E9    -2.562186224640842  -8.612225232712031E1  
 1.810000000000000E9    -2.565468270903692  -1.086937106939440E2  
 1.820000000000000E9    -2.702422531136693  -1.321120844268850E2  
 1.830000000000000E9    -2.783695334641295  -1.566697547111200E2  
 1.840000000000000E9    -2.963779167791269   1.781881885267084E2  
 1.850000000000000E9    -2.672876027438337   1.522638882663141E2  
 1.860000000000000E9    -2.743592164395794   1.258433185627367E2  
 1.870000000000000E9    -2.800459748531973   1.006561906971232E2  
 1.880000000000000E9    -2.538356275221940   7.575308398559687E1  
 1.890000000000000E9    -2.316148686611131   5.082655989664021E1  
 1.900000000000000E9    -2.124061665374040   2.614887666750495E1  
 1.910000000000000E9    -2.218295777168189   2.396340614257473  
 1.920000000000000E9    -2.210620902674267  -2.227497392071649E1  
 1.930000000000000E9    -2.293182794496193  -4.399654715115363E1  
 1.940000000000000E9    -2.471099829840123  -6.682591608417981E1  
 1.950000000000000E9    -2.408702738551201  -8.855792938723198E1  
 1.960000000000000E9    -2.472941858552098  -1.113467396461942E2  
 1.970000000000000E9    -2.566975988596670  -1.351159344937695E2  
 1.980000000000000E9    -2.644899683796119  -1.601813837858129E2  
 1.990000000000000E9    -2.600130336520039   1.752513265270006E2  
 2.000000000000000E9    -2.725556703266268   1.516215587989026E2  
 2.010000000000000E9    -2.820123982758974   1.262713110137435E2  
 2.020000000000000E9    -2.872136376279257   1.004723846569698E2  
 2.030000000000000E9    -2.744049096436791   7.506868901762164E1  
 2.040000000000000E9    -2.778340920091585   4.934301928773239E1  
 2.050000000000000E9    -2.455628138427867   2.458248635777760E1  
 2.060000000000000E9    -2.393533127087403  -1.828056651248602  
 2.070000000000000E9    -2.305543469980230  -2.645153690538732E1  
 2.080000000000000E9    -2.301867478964212  -5.020162573646721E1  
 2.090000000000000E9    -2.382225921017250  -7.210045324138235E1  
 2.100000000000000E9    -2.303808980416994  -9.387094488997177E1  
 2.110000000000000E9    -2.533360990806842  -1.156019706142828E2  
 2.120000000000000E9    -2.561860200305452  -1.368613389562817E2  
 2.130000000000000E9    -2.614580528670103  -1.586661646046295E2  
 2.140000000000000E9    -2.703142232990809   1.775238084945874E2  
 2.150000000000000E9    -2.748943337484481   1.536735718722516E2  
 2.160000000000000E9    -2.986354053727391   1.272175610385992E2  
 2.170000000000000E9    -3.131470879748707   1.005068756747452E2  
 2.180000000000000E9    -3.223009235350645   7.297902551089328E1  
 2.190000000000000E9    -3.083871267511813   4.643731894563492E1  
 2.200000000000000E9    -2.878273274303164   2.141746308076598E1  
 2.210000000000000E9    -2.655799029696641  -4.624888564896826  
 2.220000000000000E9    -2.432136860058408  -2.807184053608969E1  
 2.230000000000000E9    -2.410618118352798  -5.073142118233031E1  
 2.240000000000000E9    -2.410015628738213  -7.325163698667235E1  
 2.250000000000000E9    -2.447824442542140  -9.499440201149292E1  
 2.260000000000000E9    -2.584796880428882  -1.161657047102159E2  
 2.270000000000000E9    -2.702884736626905  -1.372813265409735E2  
 2.280000000000000E9    -2.952129753291426  -1.589725050045996E2  
 2.290000000000000E9    -3.170913334500531   1.786102604492112E2  
 2.300000000000000E9    -3.177833927158188   1.550892982066616E2  
 2.310000000000000E9    -3.207176724365097   1.299763400111714E2  
 2.320000000000000E9    -3.242832949116955   1.038996690134070E2  
 2.330000000000000E9    -3.143915481073493   7.724220337777490E1  
 2.340000000000000E9    -3.016503074944659   5.107573324416470E1  
 2.350000000000000E9    -2.992954706920487   2.367484633678667E1  
 2.360000000000000E9    -3.020450387955285  -1.647779153878622  
 2.370000000000000E9    -2.939223394406792  -2.691656105096810E1  
 2.380000000000000E9    -2.907785924354851  -5.060824940998020E1  
 2.390000000000000E9    -2.807705469746509  -7.343532682850591E1  
 2.400000000000000E9    -2.740307069265457  -9.574413812461026E1  
 2.410000000000000E9    -2.874820265037546  -1.194184369172186E2  
 2.420000000000000E9    -2.802374025055924  -1.397504148138081E2  
 2.430000000000000E9    -2.957938792113021  -1.617571941867349E2  
 2.440000000000000E9    -3.045388954840245   1.763728504861596E2  
 2.450000000000000E9    -3.158741059211783   1.539127135830664E2  
 2.460000000000000E9    -3.267410163018210   1.312510942003450E2  
 2.470000000000000E9    -3.380039684695950   1.067256188357879E2  
 2.480000000000000E9    -3.601011372767015   8.267384891158356E1  
 2.490000000000000E9    -3.533676971210669   5.539380237694471E1  
 2.500000000000000E9    -3.647467199326117   2.953415515315622E1  
 2.510000000000000E9    -3.477513185122076   2.317554263101301  
 2.520000000000000E9    -3.345139334761290  -2.546522550138482E1  
 2.530000000000000E9    -3.138251871316520  -5.093463505316269E1  
 2.540000000000000E9    -2.982273763676859  -7.556389281708854E1  
 2.550000000000000E9    -2.969059828011754  -9.812114972168021E1  
 2.560000000000000E9    -2.958182936899182  -1.191134069298332E2  
 2.570000000000000E9    -2.927154974085402  -1.410146184590712E2  
 2.580000000000000E9    -3.152806077057400  -1.605939197283973E2  
 2.590000000000000E9    -3.202291073680867   1.768084154563649E2  
 2.600000000000000E9    -3.234658652406107   1.551301470924476E2  
 2.610000000000000E9    -3.652325802220917   1.324231920706661E2  
 2.620000000000000E9    -3.759627695075817   1.086736103411471E2  
 2.630000000000000E9    -4.001943757128004   8.313770279988179E1  
 2.640000000000000E9    -4.116672630291087   5.677200418661180E1  
 2.650000000000000E9    -4.210788760941992   2.870869083524335E1  
 2.660000000000000E9    -4.208317238918453   2.114756784584978  
 2.670000000000000E9    -4.183978329570277  -2.316157886509189E1  
 2.680000000000000E9    -4.126697101779100  -4.933815856217607E1  
 2.690000000000000E9    -4.080152232222976  -7.130654826418454E1  
 2.700000000000000E9    -4.033510374322048  -9.360076905898306E1  
 2.710000000000000E9    -3.938689184864117  -1.140931777212650E2  
 2.720000000000000E9    -3.790049164775982  -1.352465331890955E2  
 2.730000000000000E9    -3.705410562978086  -1.567529562837053E2  
 2.740000000000000E9    -3.596013320561779  -1.780178324898206E2  
 2.750000000000000E9    -3.635126581057265   1.604830849214971E2  
 2.760000000000000E9    -3.896082916769180   1.369214849930750E2  
 2.770000000000000E9    -3.917792839521050   1.134071904441153E2  
 2.780000000000000E9    -4.110130921464273   9.044585758770617E1  
 2.790000000000000E9    -3.954061438679635   6.430348507795203E1  
 2.800000000000000E9    -3.930129781323978   3.789855365586269E1  
 2.810000000000000E9    -3.986828051986381   1.174351975554601E1  
 2.820000000000000E9    -3.832404831481246  -1.475550744947398E1  
 2.830000000000000E9    -3.756569448835407  -4.050679304622390E1  
 2.840000000000000E9    -3.598560143373717  -6.672152248950080E1  
 2.850000000000000E9    -3.555513737182103  -9.136780456488219E1  
 2.860000000000000E9    -3.560913118833306  -1.141156035404428E2  
 2.870000000000000E9    -3.597892819275573  -1.370345172885029E2  
 2.880000000000000E9    -3.585380180263674  -1.585469467366927E2  
 2.890000000000000E9    -3.711551457135213  -1.797548775467297E2  
 2.900000000000000E9    -3.921280567385897   1.587104152837021E2  
 2.910000000000000E9    -4.303964549704082   1.366696811647716E2  
 2.920000000000000E9    -4.669090829520532   1.149003267932740E2  
 2.930000000000000E9    -5.047388320769242   9.220104449841708E1  
