#  HZ   S   DB   R     50.0 
! Rohde & Schwarz ZVL 
! 
! 
! 
 5.000000000000000E8    -4.252190306120612  -5.670038854495758E1  
 5.100000000000000E8    -4.697244671674397  -7.574567013440118E1  
 5.200000000000000E8    -5.380175777034649  -9.324551010836136E1  
 5.300000000000000E8    -6.154190306552039  -1.091961041655748E2  
 5.400000000000000E8    -6.931949638744234  -1.228324430562304E2  
 5.500000000000000E8    -7.522475664526131  -1.361048740794709E2  
 5.600000000000000E8    -7.981599225558933  -1.490377537423625E2  
 5.700000000000000E8    -8.340355899499336  -1.612626959282879E2  
 5.800000000000000E8    -8.671354956418787  -1.743562149388277E2  
 5.900000000000000E8    -8.964370177842811   1.739537260630778E2  
 6.000000000000000E8    -9.172627543614558   1.615407626901780E2  
 6.100000000000000E8    -9.223307371722024   1.508480321723028E2  
 6.200000000000000E8    -9.135463265768827   1.396516065018840E2  
 6.300000000000000E8    -8.900238834556898   1.278603440936069E2  
 6.400000000000000E8    -8.500297759729335   1.152275089171279E2  
 6.500000000000000E8    -8.052379661873683   1.022919373112509E2  
 6.600000000000000E8    -7.563858931586160   8.813247709588134E1  
 6.700000000000000E8    -7.098813213223416   7.277348026900208E1  
 6.800000000000000E8    -6.677024274711527   5.719817823061829E1  
 6.900000000000000E8    -6.325328983416246   4.058058311728863E1  
 7.000000000000000E8    -6.091201418036851   2.329883541762575E1  
 7.100000000000000E8    -5.969094597800082   6.212440867814346  
 7.200000000000000E8    -5.888209773596676  -1.125215877093869E1  
 7.300000000000000E8    -5.837911227440562  -2.718856722200856E1  
 7.400000000000000E8    -5.768510804871062  -4.355148020622428E1  
 7.500000000000000E8    -5.719023061245229  -5.950118940803213E1  
 7.600000000000000E8    -5.672591402366824  -7.642043503749402E1  
 7.700000000000000E8    -5.673739088886365  -9.314552055653373E1  
 7.800000000000000E8    -5.622776613959001  -1.093961571575497E2  
 7.900000000000000E8    -5.569258764772093  -1.278412912972263E2  
 8.000000000000000E8    -5.503168359662556  -1.412673249762969E2  
 8.100000000000000E8    -5.488417102143647  -1.590949392045875E2  
 8.200000000000000E8    -5.538512580894945  -1.764995460621726E2  
 8.300000000000000E8    -5.597006884290776   1.664546077805290E2  
 8.400000000000000E8    -5.665401752185594   1.487360796969444E2  
 8.500000000000000E8    -5.814353708759086   1.311538561570346E2  
 8.600000000000000E8    -6.059346394739322   1.143992392937495E2  
 8.700000000000000E8    -6.315918998750725   9.742199446254938E1  
 8.800000000000000E8    -6.481466014855467   8.222963128117485E1  
 8.900000000000000E8    -6.573933276476880   6.600444658784976E1  
 9.000000000000000E8    -6.596441859008615   5.014853145197355E1  
 9.100000000000000E8    -6.632317868704524   3.327639113440534E1  
 9.200000000000000E8    -6.630103725994251   1.578644182061901E1  
 9.300000000000000E8    -6.662419225481773  -1.689054990918889  
 9.400000000000000E8    -6.826836731563029  -1.975470794653681E1  
 9.500000000000000E8    -7.123317061029391  -3.731594288222079E1  
 9.600000000000000E8    -7.566049665278735  -5.469564315775563E1  
 9.700000000000000E8    -8.045869241772145  -7.134170397017604E1  
 9.800000000000000E8    -8.414669079415555  -8.677206389166035E1  
 9.900000000000000E8    -8.694930894228154  -1.018741405612941E2  
 1.000000000000000E9    -8.855607553019111  -1.162289994163044E2  
 1.010000000000000E9    -8.666855789976887  -1.301901831179521E2  
 1.020000000000000E9    -8.615298351236977  -1.474739509812422E2  
 1.030000000000000E9    -8.693541877728436  -1.661286134439914E2  
 1.040000000000000E9    -8.964858814566881   1.761674924532184E2  
 1.050000000000000E9    -9.446140716858006   1.577060791902752E2  
 1.060000000000000E9    -1.011002798174507E1   1.408567001799189E2  
 1.070000000000000E9    -1.067047467095185E1   1.260488074988952E2  
 1.080000000000000E9    -1.106187095855523E1   1.119675457873030E2  
 1.090000000000000E9    -1.121571582326205E1   9.802346536693277E1  
 1.100000000000000E9    -1.118975863852945E1   8.305239776033974E1  
 1.110000000000000E9    -1.115795019852089E1   6.744370154467876E1  
 1.120000000000000E9    -1.110664208591390E1   5.084510105144040E1  
 1.130000000000000E9    -1.110909577155428E1   3.418118176757709E1  
 1.140000000000000E9    -1.120747543625639E1   1.607988355050781E1  
 1.150000000000000E9    -1.146592112822622E1  -2.467836974885900  
 1.160000000000000E9    -1.195985023837697E1  -2.032934228536120E1  
 1.170000000000000E9    -1.246297488354584E1  -3.611225619948746E1  
 1.180000000000000E9    -1.290502237526006E1  -5.153577695246657E1  
 1.190000000000000E9    -1.318517320158101E1  -6.606156185873316E1  
 1.200000000000000E9    -1.339457377654252E1  -8.114640447173584E1  
 1.210000000000000E9    -1.350231857473140E1  -9.630646090793888E1  
 1.220000000000000E9    -1.356128455801281E1  -1.113493436681723E2  
 1.230000000000000E9    -1.345955977793535E1  -1.266469280625359E2  
 1.240000000000000E9    -1.337939640564275E1  -1.441771046648584E2  
 1.250000000000000E9    -1.342747568366925E1  -1.621452893621635E2  
 1.260000000000000E9    -1.371260242583571E1  -1.797771466938858E2  
 1.270000000000000E9    -1.411517367152394E1   1.622721445826036E2  
 1.280000000000000E9    -1.459093233184999E1   1.467661410395388E2  
 1.290000000000000E9    -1.495851105294268E1   1.319472428760983E2  
 1.300000000000000E9    -1.518213399432878E1   1.160437796494459E2  
 1.310000000000000E9    -1.531564457241385E1   1.014610531602940E2  
 1.320000000000000E9    -1.534406862306235E1   8.755816301182863E1  
 1.330000000000000E9    -1.526022124750806E1   7.159730034628988E1  
 1.340000000000000E9    -1.515769475507497E1   5.508045830577442E1  
 1.350000000000000E9    -1.509041751728739E1   3.740140638398852E1  
 1.360000000000000E9    -1.518925841228850E1   1.915299674975412E1  
 1.370000000000000E9    -1.551025174994322E1   1.225553351434922  
 1.380000000000000E9    -1.593332778077324E1  -1.487550621368599E1  
 1.390000000000000E9    -1.634513214280290E1  -3.062982825102402E1  
 1.400000000000000E9    -1.665614592556245E1  -4.547254565536575E1  
 1.410000000000000E9    -1.689294267088212E1  -5.971642276783060E1  
 1.420000000000000E9    -1.695822598604181E1  -7.356016751924253E1  
 1.430000000000000E9    -1.690956336989084E1  -8.805183328032133E1  
 1.440000000000000E9    -1.666772629623411E1  -1.032965799140573E2  
 1.450000000000000E9    -1.644430261001592E1  -1.197325798606754E2  
 1.460000000000000E9    -1.626777648917156E1  -1.371740179558283E2  
 1.470000000000000E9    -1.635835096477097E1  -1.557173693047288E2  
 1.480000000000000E9    -1.666634137417691E1  -1.736160751560840E2  
 1.490000000000000E9    -1.710662496722616E1   1.704980532205372E2  
 1.500000000000000E9    -1.746702429823388E1   1.563047218072119E2  
 1.510000000000000E9    -1.758100991850919E1   1.424335677801939E2  
 1.520000000000000E9    -1.757073616612433E1   1.280510145239522E2  
 1.530000000000000E9    -1.745746647136691E1   1.124429615710661E2  
 1.540000000000000E9    -1.739821362274551E1   9.684085922024745E1  
 1.550000000000000E9    -1.736978431960187E1   7.930760793307431E1  
 1.560000000000000E9    -1.746594337189758E1   6.567936595844826E1  
 1.570000000000000E9    -1.758335612156282E1   4.934927007053123E1  
 1.580000000000000E9    -1.767576203512489E1   3.126775544265198E1  
 1.590000000000000E9    -1.785784833680711E1   2.059045390710092E1  
 1.600000000000000E9    -1.778672374670958E1   6.075174663336759  
 1.610000000000000E9    -1.751544869423531E1  -9.139225873077175  
 1.620000000000000E9    -1.711730262226603E1  -2.606888111866252E1  
 1.630000000000000E9    -1.701948591950228E1  -4.473754926803168E1  
 1.640000000000000E9    -1.740342244705605E1  -6.258002486983148E1  
 1.650000000000000E9    -1.804643958492459E1  -7.926414060637062E1  
 1.660000000000000E9    -1.848451713442380E1  -9.226558990696282E1  
 1.670000000000000E9    -1.866484536739702E1  -1.037544876688797E2  
 1.680000000000000E9    -1.856497574977214E1  -1.159905108591670E2  
 1.690000000000000E9    -1.817450281327860E1  -1.293956255435087E2  
 1.700000000000000E9    -1.761033160499009E1  -1.430667401343652E2  
 1.710000000000000E9    -1.695658511300517E1  -1.604768323795576E2  
 1.720000000000000E9    -1.655122092918114E1  -1.795100972304800E2  
 1.730000000000000E9    -1.676759456291818E1   1.594531814122600E2  
 1.740000000000000E9    -1.756701198081973E1   1.410971805645021E2  
 1.750000000000000E9    -1.845170342783825E1   1.264942740245733E2  
 1.760000000000000E9    -1.907123311883419E1   1.157371038701324E2  
 1.770000000000000E9    -1.919915765760306E1   1.058606819265718E2  
 1.780000000000000E9    -1.887996318828644E1   9.552781820820097E1  
 1.790000000000000E9    -1.819890815777544E1   8.414063836960983E1  
 1.800000000000000E9    -1.734346761224043E1   6.949533039783681E1  
 1.810000000000000E9    -1.645661261167831E1   5.120582705058482E1  
 1.820000000000000E9    -1.606568339285140E1   2.883747028333364E1  
 1.830000000000000E9    -1.650794701339004E1   6.809476696727642  
 1.840000000000000E9    -1.751625780260884E1  -1.116673204655635E1  
 1.850000000000000E9    -1.856184339313629E1  -2.480665665319648E1  
 1.860000000000000E9    -1.923152365347394E1  -3.510392638578124E1  
 1.870000000000000E9    -1.941719034418091E1  -4.431139230217632E1  
 1.880000000000000E9    -1.918259668935711E1  -5.292072343554918E1  
 1.890000000000000E9    -1.851198910624964E1  -6.451889012893061E1  
 1.900000000000000E9    -1.762590946599803E1  -7.767931376065937E1  
 1.910000000000000E9    -1.671728028438670E1  -9.448135337664655E1  
 1.920000000000000E9    -1.613639625003889E1  -1.150932701445408E2  
 1.930000000000000E9    -1.625796779393138E1  -1.373680167511155E2  
 1.940000000000000E9    -1.699476926521919E1  -1.561822722275655E2  
 1.950000000000000E9    -1.789717726637216E1  -1.706850321090375E2  
 1.960000000000000E9    -1.856071338044265E1   1.771837128519433E2  
 1.970000000000000E9    -1.883164410251388E1   1.672472980532699E2  
 1.980000000000000E9    -1.861177038597440E1   1.582285198109374E2  
 1.990000000000000E9    -1.799994255415768E1   1.472200627440956E2  
 2.000000000000000E9    -1.709135733403530E1   1.328314810243915E2  
 2.010000000000000E9    -1.624435837605506E1   1.145318176952730E2  
 2.020000000000000E9    -1.587847458587750E1   9.455584215802330E1  
 2.030000000000000E9    -1.619527485903707E1   7.342744267662832E1  
 2.040000000000000E9    -1.691215968019102E1   5.520478106913627E1  
 2.050000000000000E9    -1.777268063632383E1   4.009549457695151E1  
 2.060000000000000E9    -1.844026933733376E1   2.820253212888567E1  
 2.070000000000000E9    -1.875104140651218E1   1.795493193324771E1  
 2.080000000000000E9    -1.871641502292294E1   7.940014799388791  
 2.090000000000000E9    -1.833512567033716E1  -3.439110400311760  
 2.100000000000000E9    -1.770906923503642E1  -1.630120419288711E1  
 2.110000000000000E9    -1.721967239962634E1  -3.264165246338443E1  
 2.120000000000000E9    -1.698373045995430E1  -4.969391132794281E1  
 2.130000000000000E9    -1.697985553455736E1  -6.615587314632563E1  
 2.140000000000000E9    -1.709250680265706E1  -8.201031501192583E1  
 2.150000000000000E9    -1.712271817697232E1  -9.699030665667105E1  
 2.160000000000000E9    -1.710179628316131E1  -1.118485719442510E2  
 2.170000000000000E9    -1.712705829263992E1  -1.275736070115722E2  
 2.180000000000000E9    -1.715880043122173E1  -1.431463435789554E2  
 2.190000000000000E9    -1.736323752844079E1  -1.592923661984110E2  
 2.200000000000000E9    -1.771435272638045E1  -1.745231190326888E2  
 2.210000000000000E9    -1.809489166446528E1   1.720251046794064E2  
 2.220000000000000E9    -1.835792199570916E1   1.604577193023602E2  
 2.230000000000000E9    -1.832256479155172E1   1.482696412583173E2  
 2.240000000000000E9    -1.806071610316502E1   1.364445086708310E2  
 2.250000000000000E9    -1.771360671850691E1   1.225377287174476E2  
 2.260000000000000E9    -1.729566153476955E1   1.067485576481745E2  
 2.270000000000000E9    -1.713969346160449E1   8.978044444189889E1  
 2.280000000000000E9    -1.732916808083757E1   7.299217366656828E1  
 2.290000000000000E9    -1.776310101858406E1   5.766698363021077E1  
 2.300000000000000E9    -1.814761956028131E1   4.467621711703033E1  
 2.310000000000000E9    -1.826962991555743E1   3.273706948141369E1  
 2.320000000000000E9    -1.804034192060600E1   2.198305107543313E1  
 2.330000000000000E9    -1.749940815434054E1   8.929472824213782  
 2.340000000000000E9    -1.689511174847272E1  -6.665707286015812  
 2.350000000000000E9    -1.647483049273058E1  -2.565258589034115E1  
 2.360000000000000E9    -1.657064443408655E1  -4.474610776266972E1  
 2.370000000000000E9    -1.711274378684178E1  -6.401807828095684E1  
 2.380000000000000E9    -1.785401741898587E1  -7.694097250456096E1  
 2.390000000000000E9    -1.852424246312057E1  -9.039621372941804E1  
 2.400000000000000E9    -1.894008069430000E1  -1.016224139019561E2  
 2.410000000000000E9    -1.896661217799198E1  -1.104411436332781E2  
 2.420000000000000E9    -1.859181938397562E1  -1.216091994144739E2  
 2.430000000000000E9    -1.799971469060091E1  -1.349173114824791E2  
 2.440000000000000E9    -1.753990860365277E1  -1.506246338319371E2  
 2.450000000000000E9    -1.737141985200795E1  -1.666383648339606E2  
 2.460000000000000E9    -1.742060564037778E1   1.773238025712660E2  
 2.470000000000000E9    -1.743522628536853E1   1.627285246089265E2  
 2.480000000000000E9    -1.733427184895587E1   1.488302941645257E2  
 2.490000000000000E9    -1.717534917230263E1   1.340104653691229E2  
 2.500000000000000E9    -1.690562168479478E1   1.186302655231539E2  
 2.510000000000000E9    -1.674525319818957E1   1.022842802845873E2  
 2.520000000000000E9    -1.674835938080276E1   8.372247529428397E1  
 2.530000000000000E9    -1.723122060395017E1   6.621316717657514E1  
 2.540000000000000E9    -1.799811618729290E1   5.063196099231011E1  
 2.550000000000000E9    -1.862333545837808E1   3.845581899627175E1  
 2.560000000000000E9    -1.897209908077334E1   2.884160620592633E1  
 2.570000000000000E9    -1.884252848392388E1   1.883880627446098E1  
 2.580000000000000E9    -1.830631099647532E1   8.360412110310897  
 2.590000000000000E9    -1.742522740665559E1  -4.120782866649120  
 2.600000000000000E9    -1.643553332163801E1  -2.022283935152883E1  
 2.610000000000000E9    -1.566724729539921E1  -4.054850191081409E1  
 2.620000000000000E9    -1.559002665046362E1  -6.290503059571491E1  
 2.630000000000000E9    -1.615387121290225E1  -8.289014687484959E1  
 2.640000000000000E9    -1.676797815254931E1  -1.003824027769784E2  
 2.650000000000000E9    -1.713166752875811E1  -1.149257546298429E2  
 2.660000000000000E9    -1.713474087508995E1  -1.285329048417080E2  
 2.670000000000000E9    -1.682013454674064E1  -1.446999954275933E2  
 2.680000000000000E9    -1.628033890292618E1  -1.637348999826768E2  
 2.690000000000000E9    -1.587216550905363E1   1.728373577031530E2  
 2.700000000000000E9    -1.606307608243118E1   1.438028828458434E2  
 2.710000000000000E9    -1.739319049236669E1   1.121239713659890E2  
 2.720000000000000E9    -2.014561612484441E1   8.106491039655353E1  
 2.730000000000000E9    -2.426339780745488E1   5.472280608753032E1  
 2.740000000000000E9    -2.974491843783435E1   3.808191135296244E1  
 2.750000000000000E9    -3.768104555226649E1   3.475841714073876E1  
 2.760000000000000E9    -4.584168016964459E1   1.194816029726680E2  
 2.770000000000000E9    -3.601014420627605E1   1.509059975256983E2  
 2.780000000000000E9    -3.081965145288585E1   1.434031378570566E2  
 2.790000000000000E9    -2.709515194069206E1   1.302500857014855E2  
 2.800000000000000E9    -2.429241088200332E1   1.070205044606244E2  
 2.810000000000000E9    -2.295254333608214E1   8.187989116931125E1  
 2.820000000000000E9    -2.287156984973468E1   5.729531828761622E1  
 2.830000000000000E9    -2.353367078428191E1   3.847208350961545E1  
 2.840000000000000E9    -2.416319021660508E1   2.594912635008515E1  
 2.850000000000000E9    -2.453689799647138E1   1.582517579121680E1  
 2.860000000000000E9    -2.441412587552207E1   7.677597241716609  
 2.870000000000000E9    -2.390678382589022E1  -8.295973193227521E-1  
 2.880000000000000E9    -2.278977461213420E1  -1.043192515802298E1  
 2.890000000000000E9    -2.144601566657557E1  -2.448721548271337E1  
 2.900000000000000E9    -2.036102010140867E1  -4.407076494699251E1  
 2.910000000000000E9    -2.025390907491588E1  -6.670565020843127E1  
 2.920000000000000E9    -2.104773165317496E1  -8.616831037490763E1  
 2.930000000000000E9    -2.202569935869495E1  -9.926656222540754E1  
