#  HZ   S   DB   R     50.0 
! Rohde & Schwarz ZVL 
! 
! 
! 
 5.000000000000000E8    -7.566211835491086  -1.391504490721171E2  
 5.100000000000000E8    -7.704276451092289  -1.613886807030580E2  
 5.200000000000000E8    -8.008466616932374   1.780198971543123E2  
 5.300000000000000E8    -8.346241672522400   1.581561361976682E2  
 5.400000000000000E8    -8.625763194877340   1.398241764154155E2  
 5.500000000000000E8    -8.746090369844454   1.203039118522612E2  
 5.600000000000000E8    -8.728905974668814   1.004681316167691E2  
 5.700000000000000E8    -8.694432348812414   7.962709327057151E1  
 5.800000000000000E8    -8.776108046304733   5.632607616473553E1  
 5.900000000000000E8    -9.062067851206457   3.297257648649152E1  
 6.000000000000000E8    -9.556256387768155   8.828615781855264  
 6.100000000000000E8    -1.030386204577238E1  -1.412730771683495E1  
 6.200000000000000E8    -1.119489762638990E1  -3.642906721842930E1  
 6.300000000000000E8    -1.210499165661559E1  -5.805945863193431E1  
 6.400000000000000E8    -1.299840381858631E1  -7.888967388923895E1  
 6.500000000000000E8    -1.389014472358344E1  -9.941268903214001E1  
 6.600000000000000E8    -1.469835874557996E1  -1.206315864127455E2  
 6.700000000000000E8    -1.557978642499114E1  -1.417888902913421E2  
 6.800000000000000E8    -1.648881736514320E1  -1.629595389082532E2  
 6.900000000000000E8    -1.749081988887311E1   1.752478084793355E2  
 7.000000000000000E8    -1.859609069769483E1   1.530136366196199E2  
 7.100000000000000E8    -1.980670819659148E1   1.310188183246067E2  
 7.200000000000000E8    -2.105140272635754E1   1.088659191379505E2  
 7.300000000000000E8    -2.233197316227996E1   8.684336420995570E1  
 7.400000000000000E8    -2.369364292827870E1   6.454085985782770E1  
 7.500000000000000E8    -2.517779404028729E1   4.129942484744495E1  
 7.600000000000000E8    -2.673843324770294E1   1.620888277257837E1  
 7.700000000000000E8    -2.826355143805315E1  -1.014513391756131E1  
 7.800000000000000E8    -2.979903219777388E1  -3.922800270828305E1  
 7.900000000000000E8    -3.110145668378327E1  -7.279990158560463E1  
 8.000000000000000E8    -3.209023745519941E1  -1.050327075742021E2  
 8.100000000000000E8    -3.247921531092197E1  -1.429154751955659E2  
 8.200000000000000E8    -3.189651490452863E1  -1.796125567497774E2  
 8.300000000000000E8    -3.089691644762025E1   1.466840732274676E2  
 8.400000000000000E8    -2.983411760207762E1   1.165367681015566E2  
 8.500000000000000E8    -2.879105948252950E1   8.957423082089316E1  
 8.600000000000000E8    -2.782472725326826E1   6.315267797856412E1  
 8.700000000000000E8    -2.702304012646309E1   3.884338409703116E1  
 8.800000000000000E8    -2.617973201778638E1   1.665026657860769E1  
 8.900000000000000E8    -2.541343238730080E1  -5.132478479413792  
 9.000000000000000E8    -2.461673288791336E1  -2.631973026355640E1  
 9.100000000000000E8    -2.379210287083699E1  -4.777828251278054E1  
 9.200000000000000E8    -2.301211137073233E1  -6.982295616837683E1  
 9.300000000000000E8    -2.231800438966574E1  -9.251716936533832E1  
 9.400000000000000E8    -2.175173563815929E1  -1.146712129086438E2  
 9.500000000000000E8    -2.139282732288883E1  -1.367984379849988E2  
 9.600000000000000E8    -2.119885286614122E1  -1.579040848786568E2  
 9.700000000000000E8    -2.105651436453247E1  -1.787150084119463E2  
 9.800000000000000E8    -2.087763209126600E1   1.619049021442864E2  
 9.900000000000000E8    -2.063331869588171E1   1.428926656130818E2  
 1.000000000000000E9    -2.024329738745047E1   1.258408635559476E2  
 1.010000000000000E9    -1.959731769901953E1   1.082285198433923E2  
 1.020000000000000E9    -1.899884285674480E1   8.761751927922119E1  
 1.030000000000000E9    -1.852563251537511E1   6.628660015588287E1  
 1.040000000000000E9    -1.832205822095973E1   4.472568472115988E1  
 1.050000000000000E9    -1.834511623640073E1   2.335410274355193E1  
 1.060000000000000E9    -1.856479813786116E1   3.904644759102585  
 1.070000000000000E9    -1.872438772245672E1  -1.433005332255150E1  
 1.080000000000000E9    -1.870863357027594E1  -3.059043027247300E1  
 1.090000000000000E9    -1.851010631490281E1  -4.731792175762264E1  
 1.100000000000000E9    -1.816352237372725E1  -6.438047181913198E1  
 1.110000000000000E9    -1.776594154377838E1  -8.277754595001490E1  
 1.120000000000000E9    -1.739800763359075E1  -1.011597918977195E2  
 1.130000000000000E9    -1.707568140273915E1  -1.198424516594901E2  
 1.140000000000000E9    -1.681317410660431E1  -1.398083032053975E2  
 1.150000000000000E9    -1.675784381954889E1  -1.602986619063266E2  
 1.160000000000000E9    -1.697065670979865E1   1.799496063128015E2  
 1.170000000000000E9    -1.718341472679778E1   1.625357413708771E2  
 1.180000000000000E9    -1.737604982807418E1   1.453911125865649E2  
 1.190000000000000E9    -1.747078995296020E1   1.290034887272676E2  
 1.200000000000000E9    -1.745167439414781E1   1.128881347919036E2  
 1.210000000000000E9    -1.737072864821169E1   9.659182378147024E1  
 1.220000000000000E9    -1.717063246453301E1   8.101617202120207E1  
 1.230000000000000E9    -1.689473751146941E1   6.407572474276418E1  
 1.240000000000000E9    -1.656120757687415E1   4.619956276056025E1  
 1.250000000000000E9    -1.636718339325630E1   2.742442075250017E1  
 1.260000000000000E9    -1.641936112024574E1   8.419046039126076  
 1.270000000000000E9    -1.666182102489472E1  -1.020900637015138E1  
 1.280000000000000E9    -1.696343297579251E1  -2.642913366235079E1  
 1.290000000000000E9    -1.719243338424372E1  -4.259903630819934E1  
 1.300000000000000E9    -1.730755593482352E1  -5.880071232772163E1  
 1.310000000000000E9    -1.729170348775351E1  -7.399295810604670E1  
 1.320000000000000E9    -1.719790293283985E1  -8.852431163294442E1  
 1.330000000000000E9    -1.702811491300782E1  -1.037674485015931E2  
 1.340000000000000E9    -1.678990416403890E1  -1.204218550105865E2  
 1.350000000000000E9    -1.656466535223708E1  -1.383516335259594E2  
 1.360000000000000E9    -1.649592991314552E1  -1.567669864789068E2  
 1.370000000000000E9    -1.667324967637509E1  -1.750254777050473E2  
 1.380000000000000E9    -1.701895508576944E1   1.680078837147962E2  
 1.390000000000000E9    -1.727649183898062E1   1.518669013665368E2  
 1.400000000000000E9    -1.755884071635047E1   1.372387696049679E2  
 1.410000000000000E9    -1.775583541167332E1   1.226076449785968E2  
 1.420000000000000E9    -1.776410821022989E1   1.088290043326442E2  
 1.430000000000000E9    -1.761603065033984E1   9.442252788451033E1  
 1.440000000000000E9    -1.736565147995037E1   7.940335195323220E1  
 1.450000000000000E9    -1.704492039500378E1   6.325453088689002E1  
 1.460000000000000E9    -1.680004370201064E1   4.580021252181714E1  
 1.470000000000000E9    -1.679345851166924E1   2.734668213234085E1  
 1.480000000000000E9    -1.704213022161943E1   8.969878771765631  
 1.490000000000000E9    -1.745708773693396E1  -6.516959991756105  
 1.500000000000000E9    -1.777910675112383E1  -2.123739005413971E1  
 1.510000000000000E9    -1.790384353490144E1  -3.534968048252198E1  
 1.520000000000000E9    -1.789764572930109E1  -4.957609744349929E1  
 1.530000000000000E9    -1.778462680382960E1  -6.486710916552181E1  
 1.540000000000000E9    -1.769358025552104E1  -8.072616614568354E1  
 1.550000000000000E9    -1.766760443159956E1  -9.744122986175472E1  
 1.560000000000000E9    -1.777567559317574E1  -1.106372100412221E2  
 1.570000000000000E9    -1.782707298835151E1  -1.271587484191973E2  
 1.580000000000000E9    -1.794759087656281E1  -1.442829254837943E2  
 1.590000000000000E9    -1.807357497824312E1  -1.555069836860130E2  
 1.600000000000000E9    -1.797391170795943E1  -1.699997360908606E2  
 1.610000000000000E9    -1.769006998194375E1   1.743782010812757E2  
 1.620000000000000E9    -1.733642231685122E1   1.571741115715372E2  
 1.630000000000000E9    -1.724666971584632E1   1.393103943191281E2  
 1.640000000000000E9    -1.769364309425778E1   1.212713025581637E2  
 1.650000000000000E9    -1.833464130284394E1   1.052219638517804E2  
 1.660000000000000E9    -1.877128340346668E1   9.246625072106762E1  
 1.670000000000000E9    -1.894858654693392E1   8.089588502398267E1  
 1.680000000000000E9    -1.879412622880775E1   6.892404701647376E1  
 1.690000000000000E9    -1.841198470235839E1   5.533413110585695E1  
 1.700000000000000E9    -1.781383730770879E1   4.135402972402758E1  
 1.710000000000000E9    -1.716866995731066E1   2.444566669631690E1  
 1.720000000000000E9    -1.676715163671672E1   4.550225973598527  
 1.730000000000000E9    -1.704414847803934E1  -1.629057028501003E1  
 1.740000000000000E9    -1.783387025679459E1  -3.491088533366966E1  
 1.750000000000000E9    -1.879081901475063E1  -4.904688902998434E1  
 1.760000000000000E9    -1.935110534999278E1  -6.021658923240899E1  
 1.770000000000000E9    -1.950998862876709E1  -6.975845293495620E1  
 1.780000000000000E9    -1.920424536227309E1  -7.966833264804669E1  
 1.790000000000000E9    -1.851105744717115E1  -9.138651936671757E1  
 1.800000000000000E9    -1.758356291752220E1  -1.062520796128785E2  
 1.810000000000000E9    -1.671259314993122E1  -1.244112447104646E2  
 1.820000000000000E9    -1.632281478278585E1  -1.474551786946335E2  
 1.830000000000000E9    -1.678273114634565E1  -1.692084116876864E2  
 1.840000000000000E9    -1.782219306617661E1   1.725554975682422E2  
 1.850000000000000E9    -1.882691933619625E1   1.589403169864798E2  
 1.860000000000000E9    -1.947887760575889E1   1.482959135370073E2  
 1.870000000000000E9    -1.966871410676907E1   1.389106142547200E2  
 1.880000000000000E9    -1.937805735874135E1   1.298094478297910E2  
 1.890000000000000E9    -1.873702142628922E1   1.184153107537243E2  
 1.900000000000000E9    -1.786611451547604E1   1.043566397510376E2  
 1.910000000000000E9    -1.694930382436376E1   8.771047112111077E1  
 1.920000000000000E9    -1.638084847740567E1   6.656077585118763E1  
 1.930000000000000E9    -1.652066106428645E1   4.463808920983077E1  
 1.940000000000000E9    -1.728991260221336E1   2.532504643714945E1  
 1.950000000000000E9    -1.820094034425575E1   1.022224102047854E1  
 1.960000000000000E9    -1.891644773462493E1  -1.792975704999711  
 1.970000000000000E9    -1.921269484713589E1  -1.227416345052177E1  
 1.980000000000000E9    -1.900595565108307E1  -2.137562629810560E1  
 1.990000000000000E9    -1.837246514357724E1  -3.222435944688725E1  
 2.000000000000000E9    -1.748606740533600E1  -4.690119947086770E1  
 2.010000000000000E9    -1.663271330070741E1  -6.551966799871401E1  
 2.020000000000000E9    -1.624153007429230E1  -8.576506373453886E1  
 2.030000000000000E9    -1.652615591899044E1  -1.066685886945398E2  
 2.040000000000000E9    -1.719473211092834E1  -1.250452941064334E2  
 2.050000000000000E9    -1.801665463543350E1  -1.404056191637804E2  
 2.060000000000000E9    -1.863235535893961E1  -1.531419605146577E2  
 2.070000000000000E9    -1.896068144189113E1  -1.638988210053731E2  
 2.080000000000000E9    -1.892491156159561E1  -1.749509736065739E2  
 2.090000000000000E9    -1.850813433466433E1   1.734080511736515E2  
 2.100000000000000E9    -1.793996085101373E1   1.599485920604269E2  
 2.110000000000000E9    -1.747981135266196E1   1.435300242112570E2  
 2.120000000000000E9    -1.728309760694317E1   1.259264891800681E2  
 2.130000000000000E9    -1.724076602509046E1   1.092440044982780E2  
 2.140000000000000E9    -1.734542831300402E1   9.298192671553875E1  
 2.150000000000000E9    -1.740927521536444E1   7.798454024447095E1  
 2.160000000000000E9    -1.739475828843228E1   6.256132577069940E1  
 2.170000000000000E9    -1.741068196175830E1   4.640934697957378E1  
 2.180000000000000E9    -1.744857452320474E1   3.076891699977625E1  
 2.190000000000000E9    -1.762169043784007E1   1.445819507702868E1  
 2.200000000000000E9    -1.799298247855124E1  -7.355211845150180E-1  
 2.210000000000000E9    -1.836899393412492E1  -1.512596535660911E1  
 2.220000000000000E9    -1.859036638180744E1  -2.665212510028091E1  
 2.230000000000000E9    -1.852048324212817E1  -3.915354405648901E1  
 2.240000000000000E9    -1.821137381662264E1  -5.175556115329882E1  
 2.250000000000000E9    -1.778895986978657E1  -6.602096473198419E1  
 2.260000000000000E9    -1.737810645462696E1  -8.225061948797540E1  
 2.270000000000000E9    -1.721034776087324E1  -9.953212321802982E1  
 2.280000000000000E9    -1.742429044487358E1  -1.177608664520653E2  
 2.290000000000000E9    -1.783125156114530E1  -1.330625381499595E2  
 2.300000000000000E9    -1.823449660048930E1  -1.461788403027843E2  
 2.310000000000000E9    -1.830830929715925E1  -1.578938148419040E2  
 2.320000000000000E9    -1.807505698358035E1  -1.694090663825212E2  
 2.330000000000000E9    -1.753671511562640E1   1.771074380067222E2  
 2.340000000000000E9    -1.690952598470380E1   1.611812462537936E2  
 2.350000000000000E9    -1.649911549920903E1   1.423109545130785E2  
 2.360000000000000E9    -1.649089066934106E1   1.230674573828965E2  
 2.370000000000000E9    -1.693816376627241E1   1.034311495943099E2  
 2.380000000000000E9    -1.760462716974523E1   8.953577833657290E1  
 2.390000000000000E9    -1.825099557266859E1   7.555052172363484E1  
 2.400000000000000E9    -1.858954088863514E1   6.432674535827442E1  
 2.410000000000000E9    -1.853510299481992E1   5.467069844534082E1  
 2.420000000000000E9    -1.816349271841027E1   4.328832180539364E1  
 2.430000000000000E9    -1.754388443781535E1   2.871768380749572E1  
 2.440000000000000E9    -1.705723540062654E1   1.252688245211064E1  
 2.450000000000000E9    -1.686069963531054E1  -3.641420915356187  
 2.460000000000000E9    -1.686879641549738E1  -2.000682172859914E1  
 2.470000000000000E9    -1.685581254455136E1  -3.502131003362468E1  
 2.480000000000000E9    -1.672833500539802E1  -4.976353550324973E1  
 2.490000000000000E9    -1.648681508222559E1  -6.439596545782101E1  
 2.500000000000000E9    -1.615508864740917E1  -8.061677210564407E1  
 2.510000000000000E9    -1.598088791918489E1  -9.749545249495967E1  
 2.520000000000000E9    -1.596708318823698E1  -1.169407862669463E2  
 2.530000000000000E9    -1.646735646366888E1  -1.346543232261666E2  
 2.540000000000000E9    -1.716391860291018E1  -1.509939121710689E2  
 2.550000000000000E9    -1.781829534184387E1  -1.632306990992024E2  
 2.560000000000000E9    -1.811334823917235E1  -1.733428106576381E2  
 2.570000000000000E9    -1.806209167605189E1   1.767569757031205E2  
 2.580000000000000E9    -1.745961203195571E1   1.667734785678665E2  
 2.590000000000000E9    -1.652240947158319E1   1.540092723646185E2  
 2.600000000000000E9    -1.548037908831621E1   1.378968534948397E2  
 2.610000000000000E9    -1.470506541154370E1   1.179432507833912E2  
 2.620000000000000E9    -1.450179022162930E1   9.614520823326932E1  
 2.630000000000000E9    -1.493178284832461E1   7.663741883149785E1  
 2.640000000000000E9    -1.544185490829005E1   5.943612838830271E1  
 2.650000000000000E9    -1.568587060186249E1   4.571450695513046E1  
 2.660000000000000E9    -1.557044664117362E1   3.276543914581264E1  
 2.670000000000000E9    -1.507948605303855E1   1.870453403745996E1  
 2.680000000000000E9    -1.425442840807019E1   1.399885580008537  
 2.690000000000000E9    -1.344386990535980E1  -1.962992472629247E1  
 2.700000000000000E9    -1.303284086500352E1  -4.564203482599389E1  
 2.710000000000000E9    -1.353459356548142E1  -7.457246860838717E1  
 2.720000000000000E9    -1.522723695383117E1  -1.027972218956565E2  
 2.730000000000000E9    -1.782798768404283E1  -1.250451080653557E2  
 2.740000000000000E9    -2.058785690735288E1  -1.373711661419653E2  
 2.750000000000000E9    -2.302012872073334E1  -1.400830432359147E2  
 2.760000000000000E9    -2.455793373314364E1  -1.422212732242064E2  
 2.770000000000000E9    -2.493069258952100E1  -1.408160232582628E2  
 2.780000000000000E9    -2.417039620183491E1  -1.413650310903039E2  
 2.790000000000000E9    -2.260843078711863E1  -1.478711471063899E2  
 2.800000000000000E9    -2.109850588223823E1  -1.636446294079440E2  
 2.810000000000000E9    -2.046182098942795E1   1.756973052687430E2  
 2.820000000000000E9    -2.093803521643904E1   1.559538154449512E2  
 2.830000000000000E9    -2.184979664318140E1   1.416171793300163E2  
 2.840000000000000E9    -2.260682387014838E1   1.325625626226779E2  
 2.850000000000000E9    -2.286818382905962E1   1.240495569684352E2  
 2.860000000000000E9    -2.270943052042860E1   1.168948504422293E2  
 2.870000000000000E9    -2.203867925731990E1   1.091920550438798E2  
 2.880000000000000E9    -2.090768020841136E1   1.000578730566241E2  
 2.890000000000000E9    -1.948821766761831E1   8.607707636362166E1  
 2.900000000000000E9    -1.834922221777026E1   6.591240851807768E1  
 2.910000000000000E9    -1.823139187198666E1   4.249414592349028E1  
 2.920000000000000E9    -1.900859205633600E1   2.317365073353622E1  
 2.930000000000000E9    -1.988460378099559E1   9.730059400021755  
