#  HZ   S   DB   R     50.0 
! Rohde & Schwarz ZVL 
! 
! 
! 
 2.025000000000000E9    -3.933957416217497E-1   1.667762520448211E2  
 2.029750000000000E9    -4.270358747907068E-1   1.679549127372574E2  
 2.034500000000000E9    -7.693626377492450E-1   1.684001621697163E2  
 2.039250000000000E9    -8.244141992979550E-1   1.655900454503323E2  
 2.044000000000000E9    -6.131457053062595E-1   1.615038223564084E2  
 2.048750000000000E9    -2.049645010060249E-1   1.607645341234241E2  
 2.053500000000000E9    -2.589411638717410E-1   1.601673615058724E2  
 2.058250000000000E9    -2.260928388679668E-1   1.580285048098737E2  
 2.063000000000000E9    -8.123419137310332E-1   1.571920439443714E2  
 2.067750000000000E9    -1.072606570920075E-1   1.575612014239543E2  
 2.072500000000000E9    -1.186040023896540E-1   1.539613753634358E2  
 2.077250000000000E9    -4.714841670553607E-1   1.554331536318893E2  
 2.082000000000000E9    -5.791612834293093E-1   1.541609513623912E2  
 2.086750000000000E9    -5.150810573844896E-1   1.541130605805987E2  
 2.091500000000000E9    -1.216360178616553E-1   1.517205198441211E2  
 2.096250000000000E9     1.668204766388703E-3   1.573246920319744E2  
 2.101000000000000E9    -3.888893516837473E-1   1.506202582219962E2  
 2.105750000000000E9    -4.998077913889343E-1   1.479094626387567E2  
 2.110500000000000E9    -6.508646193003640E-3   1.448206656555098E2  
 2.115250000000000E9    -2.209430789037343E-1   1.440719544699888E2  
 2.120000000000000E9    -8.149821546587780E-1   1.418376545836230E2  
 2.124750000000000E9    -3.696770516868144E-1   1.448463972154665E2  
 2.129500000000000E9    -3.971765853782122E-1   1.424925280235379E2  
 2.134250000000000E9    -5.673488168343842E-1   1.405027893623291E2  
 2.139000000000000E9    -6.623166385243913E-1   1.400103474671673E2  
 2.143750000000000E9    -9.504345346651661E-1   1.421904255743673E2  
 2.148500000000000E9    -3.001536965872352E-1   1.376045000994891E2  
 2.153250000000000E9    -9.400680722546748E-1   1.340853698155514E2  
 2.158000000000000E9    -3.751727789617309E-1   1.360589975819308E2  
 2.162750000000000E9    -6.805506447802923E-1   1.322380412544991E2  
 2.167500000000000E9    -5.961132872376920E-1   1.286134800582632E2  
 2.172250000000000E9    -1.168494680237618   1.309348958012394E2  
 2.177000000000000E9    -4.543245740656849E-1   1.292092612515611E2  
 2.181750000000000E9    -1.019426340311980   1.246455726587931E2  
 2.186500000000000E9    -1.530416889161391   1.216565379012678E2  
 2.191250000000000E9    -1.153069690791772   1.189755453247983E2  
 2.196000000000000E9    -1.541320585101259   1.180009266377771E2  
 2.200750000000000E9    -1.575631956303840   1.179222330966161E2  
 2.205500000000000E9    -1.828830570218756   1.113724875447950E2  
 2.210250000000000E9    -2.080472761835136   1.021454663579645E2  
 2.215000000000000E9    -2.094709854123039   1.064875831023697E2  
 2.219750000000000E9    -2.706223966946306   1.040951013277496E2  
 2.224500000000000E9    -2.955270977290777   9.728096158391375E1  
 2.229250000000000E9    -4.244206216108265   9.672233170574501E1  
 2.234000000000000E9    -6.041661436945821   8.339098723431631E1  
 2.238750000000000E9    -6.013807916713894   7.807595062135617E1  
 2.243500000000000E9    -8.400570511708761   8.120753403787322E1  
 2.248250000000000E9    -1.187200502562463E1   6.305488684496358E1  
 2.253000000000000E9    -1.448839468647260E1   4.677326700546273E1  
 2.257750000000000E9    -2.414064005568051E1   7.974081249467665E1  
 2.262500000000000E9    -2.231317424643559E1  -1.487005670952010E2  
 2.267250000000000E9    -1.400126344874229E1  -1.540022776242128E2  
 2.272000000000000E9    -1.148066575991452E1  -1.573975880611011E2  
 2.276750000000000E9    -8.276572658635722  -1.604628485922955E2  
 2.281500000000000E9    -6.369896841962062  -1.603566809896934E2  
 2.286250000000000E9    -5.428934310022124  -1.623301621886003E2  
 2.291000000000000E9    -4.119982283723565   1.797269054640304E2  
 2.295750000000000E9    -2.918656035682409  -1.775471009441345E2  
 2.300500000000000E9    -2.522316398301195  -1.799527086465756E2  
 2.305250000000000E9    -2.534794974374817   1.736929361292590E2  
 2.310000000000000E9    -1.400828137514267   1.689637916711344E2  
 2.314750000000000E9    -2.272840115749977   1.648990170460374E2  
 2.319500000000000E9    -1.759855303849827   1.680565603540175E2  
 2.324250000000000E9    -1.266346097697119   1.628855669502142E2  
 2.329000000000000E9    -1.126350085972389   1.627488848149696E2  
 2.333750000000000E9    -7.884339772414304E-1   1.576907686101391E2  
 2.338500000000000E9    -6.503290236814387E-1   1.541212068431756E2  
 2.343250000000000E9    -6.882424596122152E-1   1.503994838076125E2  
 2.348000000000000E9    -6.921665638733966E-1   1.483328589059842E2  
 2.352750000000000E9    -8.713095533486357E-1   1.499905040118360E2  
 2.357500000000000E9    -4.644507095868448E-1   1.411078068033622E2  
 2.362250000000000E9    -6.952778795084417E-1   1.454436224620765E2  
 2.367000000000000E9    -6.150388517847126E-1   1.421041944632634E2  
 2.371750000000000E9    -5.931870792551564E-1   1.396269860256909E2  
 2.376500000000000E9    -7.038221693548078E-1   1.383098212940827E2  
 2.381250000000000E9    -3.158844907391821E-1   1.375916884227683E2  
 2.386000000000000E9    -4.839038287847573E-1   1.336759543708562E2  
 2.390750000000000E9    -3.546489828082277E-1   1.337139083656606E2  
 2.395500000000000E9    -7.061417562594141E-1   1.326305557352622E2  
 2.400250000000000E9    -4.257484385303462E-1   1.315328854142529E2  
 2.405000000000000E9    -2.982885228765402E-1   1.313277433120382E2  
 2.409750000000000E9    -5.371081984917920E-1   1.290734735008521E2  
 2.414500000000000E9    -2.392782923529411E-1   1.306519678335769E2  
 2.419250000000000E9    -7.726642888098110E-1   1.259746876956548E2  
 2.424000000000000E9    -1.149476335798351E-1   1.249480441300938E2  
 2.428750000000000E9    -3.230609511511364E-1   1.225944798776878E2  
 2.433500000000000E9    -1.079764691197441E-1   1.240252134627257E2  
 2.438250000000000E9    -5.923675944746180E-2   1.196240406347723E2  
 2.443000000000000E9    -6.597527011203070E-1   1.140337510361520E2  
 2.447750000000000E9    -1.068102769322307E-1   1.185889691731640E2  
 2.452500000000000E9    -7.244007634169075E-1   1.171364472259082E2  
 2.457250000000000E9    -4.090110128101047E-1   1.142906284580021E2  
 2.462000000000000E9    -9.601081240537411E-2   1.183241669687983E2  
 2.466750000000000E9    -3.474717063008271E-1   1.151729907269700E2  
 2.471500000000000E9    -3.916466587945013E-1   1.155753067641531E2  
 2.476250000000000E9    -2.883383321131126E-1   1.097735877995525E2  
 2.481000000000000E9    -2.622263721433750E-1   1.095592076034447E2  
 2.485750000000000E9    -2.323484708346014E-1   1.101757034865138E2  
 2.490500000000000E9    -2.364080522772109E-1   1.107110613692920E2  
 2.495250000000000E9     1.687212642625634E-2   1.075039117405241E2  
 2.500000000000000E9    -1.163006106986894   1.087219908200181E2  
 2.504750000000000E9    -5.685822324915881E-1   1.033728295847297E2  
 2.509500000000000E9    -8.241473318695380E-1   1.042755481021855E2  
 2.514250000000000E9    -6.602337981454629E-1   1.057667434483073E2  
 2.519000000000000E9    -6.107466326523593E-1   1.042345567390345E2  
 2.523750000000000E9    -1.068900321228417   1.009652806779463E2  
 2.528500000000000E9    -2.897572653925655E-1   9.929114553461032E1  
 2.533250000000000E9    -6.301580538328442E-1   9.796670372710145E1  
 2.538000000000000E9    -4.348129639339013E-1   9.519728855459557E1  
 2.542750000000000E9    -9.924193199813787E-1   9.600536649282986E1  
 2.547500000000000E9    -3.241075892927368E-1   9.632333784528464E1  
 2.552250000000000E9    -4.777115441060624E-1   9.048812316549032E1  
 2.557000000000000E9    -1.253160418423103   9.418988512121184E1  
 2.561750000000000E9    -1.016684644836734   8.359064832026550E1  
 2.566500000000000E9    -6.140872645237824E-1   8.854670665207995E1  
 2.571250000000000E9    -1.175925357484894   8.581745766966074E1  
 2.576000000000000E9    -1.554667483293640   8.375792258773508E1  
 2.580750000000000E9    -1.382893919571681   8.127127442193870E1  
 2.585500000000000E9    -1.144540423365882   7.383646174817069E1  
 2.590250000000000E9    -1.813694502103860   7.830054229520367E1  
 2.595000000000000E9    -2.194344671834204   7.320050954016236E1  
 2.599750000000000E9    -1.691800375040489   6.931067008153383E1  
 2.604500000000000E9    -2.062843171179392   6.627698304042474E1  
 2.609250000000000E9    -2.746974064274409   6.534334493800600E1  
 2.614000000000000E9    -3.234297287248094   6.042660003487682E1  
 2.618750000000000E9    -2.565466315436737   5.440400111297557E1  
 2.623500000000000E9    -2.744892736431686   5.599586244852672E1  
 2.628250000000000E9    -2.770159722497448   4.889734945342988E1  
 2.633000000000000E9    -3.893747167662119   4.095015729451326E1  
 2.637750000000000E9    -4.037996299455178   3.490461887205115E1  
 2.642500000000000E9    -5.000823658636067   2.869185998960522E1  
 2.647250000000000E9    -6.783721081202729   2.885326512069915E1  
 2.652000000000000E9    -7.993061371399827   2.514470674897363E1  
 2.656750000000000E9    -1.064573281514915E1   6.446016667324224  
 2.661500000000000E9    -1.159410931402585E1  -1.007329570887964E1  
 2.666250000000000E9    -1.364169271362306E1  -3.415345470182140E1  
 2.671000000000000E9    -1.937243782421452E1  -7.566355348209507E1  
 2.675750000000000E9    -1.306594649805393E1  -1.077647712966214E2  
 2.680500000000000E9    -1.251898718671822E1  -1.282052171584851E2  
 2.685250000000000E9    -9.454015363804508  -1.717301387415666E2  
 2.690000000000000E9    -7.976554646581856  -1.779787326236357E2  
 2.694750000000000E9    -5.560122972643989   1.728214793423798E2  
 2.699500000000000E9    -5.369088803337681   1.641564416056843E2  
 2.704250000000000E9    -4.900724084043031   1.577284299042601E2  
 2.709000000000000E9    -3.764313555437544   1.505094807255505E2  
 2.713750000000000E9    -3.385260997176277   1.446811871346046E2  
 2.718500000000000E9    -2.941122920816968   1.393585955554460E2  
 2.723250000000000E9    -2.354626110052165   1.368787791452476E2  
 2.728000000000000E9    -1.974362692789888   1.294043937623454E2  
 2.732750000000000E9    -1.858730793616947   1.316731157884331E2  
 2.737500000000000E9    -1.740805592762545   1.264239863188332E2  
 2.742250000000000E9    -1.184686440347866   1.220929145838670E2  
 2.747000000000000E9    -1.217141091920628   1.198794858399518E2  
 2.751750000000000E9    -1.175890649706602   1.156301369554388E2  
 2.756500000000000E9    -1.136815846674530   1.099858034417584E2  
 2.761250000000000E9    -4.916588020369588E-1   1.125374810606011E2  
 2.766000000000000E9    -7.783960246861792E-1   1.121083717445781E2  
 2.770750000000000E9    -8.335957726294434E-1   1.057816380291968E2  
 2.775500000000000E9    -9.835600575431508E-1   1.084997258489179E2  
 2.780250000000000E9    -8.723126245724656E-1   1.022461235276749E2  
 2.785000000000000E9    -1.128270635872163   9.566928974546664E1  
 2.789750000000000E9    -1.242237999009681   9.827655158084527E1  
 2.794500000000000E9    -7.176437105021509E-1   9.252691647936454E1  
 2.799250000000000E9    -3.205349729121841E-1   9.797020954652029E1  
 2.804000000000000E9    -9.947468552774227E-1   9.318687121246772E1  
 2.808750000000000E9    -5.353300934538101E-1   9.151041750852551E1  
 2.813500000000000E9    -1.000962552422764   9.090332885953551E1  
 2.818250000000000E9    -5.695280933617921E-1   8.516696631915450E1  
 2.823000000000000E9    -2.751109391865516E-1   8.560273582859348E1  
 2.827750000000000E9    -5.447407755691849E-2   8.613659019525436E1  
 2.832500000000000E9    -3.673638913088515E-1   8.139662786874422E1  
 2.837250000000000E9    -5.825360856004896E-1   8.127762967139584E1  
 2.842000000000000E9     1.671477312814638E-1   8.160972449527196E1  
 2.846750000000000E9    -4.912573460568649E-1   8.179460174239692E1  
 2.851500000000000E9    -5.557867580476081E-1   7.855679323722966E1  
 2.856250000000000E9    -4.881192182297007E-1   7.434893929910473E1  
 2.861000000000000E9    -5.657041885719104E-1   7.443977424618454E1  
 2.865750000000000E9    -6.675605108535216E-1   7.089474051085738E1  
 2.870500000000000E9    -1.588219504912044   6.989051801574266E1  
 2.875250000000000E9    -8.995208369666651E-1   6.991727619057649E1  
 2.880000000000000E9    -1.297391129377819E-1   7.233910907749366E1  
 2.884750000000000E9    -7.133706092500561E-1   6.856834449142805E1  
 2.889500000000000E9    -1.179722598383573   6.443128012736624E1  
 2.894250000000000E9    -4.645822895022111E-1   6.378779535314016E1  
 2.899000000000000E9    -6.805331259503304E-1   6.235747770201031E1  
 2.903750000000000E9    -1.000743307905358   6.028362062580906E1  
 2.908500000000000E9    -2.179738177286801E-1   6.283746210236495E1  
 2.913250000000000E9    -8.308971889026434E-1   6.213279648435720E1  
 2.918000000000000E9    -1.144480836770578   5.656967148134136E1  
 2.922750000000000E9    -8.671668637278970E-1   5.867089623859768E1  
 2.927500000000000E9    -9.749913677684352E-1   5.329466912179262E1  
 2.932250000000000E9    -7.058649877365592E-1   5.070792537362629E1  
 2.937000000000000E9    -6.700053343576552E-1   5.394900302294768E1  
 2.941750000000000E9    -7.972550996408517E-1   4.991798526991614E1  
 2.946500000000000E9    -7.813526725870916E-1   5.050580893655328E1  
 2.951250000000000E9    -6.979106158860405E-1   5.307061757106764E1  
 2.956000000000000E9    -1.577530624955380   4.340826637398023E1  
 2.960750000000000E9    -1.411809541196184   4.369123737654351E1  
 2.965500000000000E9    -9.839767675515229E-1   4.568496870574340E1  
 2.970250000000000E9    -2.301951381709305   3.779621007782369E1  
 2.975000000000000E9    -1.331196480809577   4.091385455362367E1  
