#  HZ   S   DB   R     50.0 
! Rohde & Schwarz ZVL 
! 
! 
! 
 5.000000000000000E8    -8.110295647060455E-1   2.782318876549033E1  
 5.006250000000000E8    -8.788171948533450E-1   2.612721901981212E1  
 5.012500000000000E8    -8.174656334315448E-1   2.481505567427054E1  
 5.018750000000000E8    -8.053933364101547E-1   2.219443364337474E1  
 5.025000000000000E8    -8.339333381261636E-1   2.005463182819106E1  
 5.031250000000000E8    -7.982233862343018E-1   1.838468084521012E1  
 5.037500000000000E8    -8.510591175145670E-1   1.629626366252814E1  
 5.043750000000000E8    -8.327869478795555E-1   1.502537957114019E1  
 5.050000000000000E8    -8.086377608042983E-1   1.274370769359650E1  
 5.056250000000000E8    -7.899668918297288E-1   1.098665343777745E1  
 5.062500000000000E8    -8.767813949155326E-1   9.090294208061792  
 5.068750000000000E8    -8.571125586822950E-1   7.317707676575693  
 5.075000000000000E8    -8.696443301262602E-1   5.380726284618945  
 5.081250000000000E8    -8.358573191844944E-1   3.096336418036726  
 5.087500000000000E8    -8.814839936116184E-1   1.298578677682456  
 5.093750000000000E8    -8.286372402378043E-1  -4.508572896309770E-1  
 5.100000000000000E8    -8.606659052095356E-1  -2.516584648711241  
 5.106250000000000E8    -9.047225474860099E-1  -4.259646767176283  
 5.112500000000000E8    -8.919528377725775E-1  -5.692006976843189  
 5.118750000000000E8    -9.256842815528743E-1  -8.014090763247507  
 5.125000000000000E8    -9.024585186513786E-1  -9.567706516225016  
 5.131250000000000E8    -9.208017269599533E-1  -1.091264297600560E1  
 5.137500000000000E8    -9.398462499620295E-1  -1.343770514593616E1  
 5.143750000000000E8    -9.648484628109656E-1  -1.481699681339114E1  
 5.150000000000000E8    -9.509913706521006E-1  -1.674745196647076E1  
 5.156250000000000E8    -9.844577578604872E-1  -1.855211735144199E1  
 5.162500000000000E8    -1.007065730525637  -1.964666163992095E1  
 5.168750000000000E8    -9.662699735658237E-1  -2.263813812460192E1  
 5.175000000000000E8    -1.031669973591294  -2.388742956336061E1  
 5.181250000000000E8    -1.039224091986494  -2.567958180364292E1  
 5.187500000000000E8    -1.006382507817207  -2.733305502417751E1  
 5.193750000000000E8    -1.087420824370553  -2.940064567965584E1  
 5.200000000000000E8    -1.047228988667003  -3.143924606447292E1  
 5.206250000000000E8    -1.008527855685654  -3.302376645109715E1  
 5.212500000000000E8    -1.078963623912040  -3.487023959630425E1  
 5.218750000000000E8    -1.123270052361514  -3.699763074466859E1  
 5.225000000000000E8    -1.086269903054161  -3.897306458389237E1  
 5.231250000000000E8    -1.155429746294611  -4.133698951548845E1  
 5.237500000000000E8    -1.110222450303418  -4.242668305242879E1  
 5.243750000000000E8    -1.133749181357640  -4.459945519405792E1  
 5.250000000000000E8    -1.151934203720537  -4.641612551577963E1  
 5.256250000000000E8    -1.183412495363550  -4.861351145767340E1  
 5.262500000000000E8    -1.169354811671751  -5.016010436652552E1  
 5.268750000000000E8    -1.197169545177275  -5.192645585130309E1  
 5.275000000000000E8    -1.229395250372569  -5.362164875021621E1  
 5.281250000000000E8    -1.294570139656046  -5.613230009113585E1  
 5.287500000000000E8    -1.328691198207201  -5.762007558445815E1  
 5.293750000000000E8    -1.370411375529404  -5.996536826150862E1  
 5.300000000000000E8    -1.310860473011932  -6.124547981957620E1  
 5.306250000000000E8    -1.353747461356479  -6.392832303457056E1  
 5.312500000000000E8    -1.369321612091474  -6.556890978393101E1  
 5.318750000000000E8    -1.356268524702558  -6.618774268711816E1  
 5.325000000000000E8    -1.359763944073810  -6.851941429608587E1  
 5.331250000000000E8    -1.403707408120593  -7.040699058453609E1  
 5.337500000000000E8    -1.384225769543854  -7.258144048294749E1  
 5.343750000000000E8    -1.444996471501492  -7.385968947507524E1  
 5.350000000000000E8    -1.479634481877323  -7.601304136124544E1  
 5.356250000000000E8    -1.383666553312259  -7.699010835037186E1  
 5.362500000000000E8    -1.455869961869166  -7.949997614201332E1  
 5.368750000000000E8    -1.455066181187019  -8.053812368871459E1  
 5.375000000000000E8    -1.529200504814784  -8.285132936473818E1  
 5.381250000000000E8    -1.507782235670698  -8.424793225706419E1  
 5.387500000000000E8    -1.523420436764831  -8.631734820244652E1  
 5.393750000000000E8    -1.501345322395927  -8.830889669483796E1  
 5.400000000000000E8    -1.569088069890349  -8.991062858279717E1  
 5.406250000000000E8    -1.567489552443020  -9.144588006564200E1  
 5.412500000000000E8    -1.549022824626187  -9.385758172505622E1  
 5.418750000000000E8    -1.615835625428848  -9.479412834121455E1  
 5.425000000000000E8    -1.631221673477806  -9.722754645650822E1  
 5.431250000000000E8    -1.570271956223380  -9.925951917990886E1  
 5.437500000000000E8    -1.621453160868464  -1.008462814707818E2  
 5.443750000000000E8    -1.587716122952781  -1.030314470377631E2  
 5.450000000000000E8    -1.681815677085144  -1.051017179740697E2  
 5.456250000000000E8    -1.672462382325398  -1.066008302056187E2  
 5.462500000000000E8    -1.693532895829696  -1.094947784431173E2  
 5.468750000000000E8    -1.635507767222127  -1.107401994534134E2  
 5.475000000000000E8    -1.656016298462560  -1.125870322785782E2  
 5.481250000000000E8    -1.688348309154885  -1.147871635628483E2  
 5.487500000000000E8    -1.714060023854807  -1.169831627095730E2  
 5.493750000000000E8    -1.682488752157768  -1.189406083873293E2  
 5.500000000000000E8    -1.692445358802223  -1.209496402519594E2  
 5.506250000000000E8    -1.676742637107513  -1.225023796961871E2  
 5.512500000000000E8    -1.703159048316276  -1.247171463457051E2  
 5.518750000000000E8    -1.738958713541238  -1.264283354692891E2  
 5.525000000000000E8    -1.751483717118013  -1.276849204585765E2  
 5.531250000000000E8    -1.757615118088836  -1.300307226900348E2  
 5.537500000000000E8    -1.801148584427059  -1.317879614729249E2  
 5.543750000000000E8    -1.741899144944048  -1.334837045849846E2  
 5.550000000000000E8    -1.752320100168549  -1.358858802994072E2  
 5.556250000000000E8    -1.858673838463364  -1.374618415248938E2  
 5.562500000000000E8    -1.883980158326041  -1.394046451148222E2  
 5.568750000000000E8    -1.876983798618832  -1.414267937223946E2  
 5.575000000000000E8    -1.855805981429012  -1.435468625657061E2  
 5.581250000000000E8    -1.901081662695945  -1.449267487493568E2  
 5.587500000000000E8    -1.917854496171513  -1.474607791224380E2  
 5.593750000000000E8    -1.942386316657127  -1.497025008463311E2  
 5.600000000000000E8    -1.986380290148184  -1.504865460925210E2  
 5.606250000000000E8    -2.070415674542036  -1.530098358722390E2  
 5.612500000000000E8    -1.991360851270998  -1.552534787300907E2  
 5.618750000000000E8    -2.020668774715724  -1.570640234281676E2  
 5.625000000000000E8    -2.039743419010165  -1.587433654580962E2  
 5.631250000000000E8    -2.076141977787972  -1.607580995782033E2  
 5.637500000000000E8    -2.151702826833497  -1.628930351655004E2  
 5.643750000000000E8    -2.110102872941509  -1.646490206338933E2  
 5.650000000000000E8    -2.161034474465794  -1.668078177065507E2  
 5.656250000000000E8    -2.132510654291528  -1.687728295062493E2  
 5.662500000000000E8    -2.216105520124621  -1.710011843616412E2  
 5.668750000000000E8    -2.218668646561521  -1.727278857123941E2  
 5.675000000000000E8    -2.212236233813052  -1.742345591680682E2  
 5.681250000000000E8    -2.196691322965013  -1.763563949863045E2  
 5.687500000000000E8    -2.190344457024299  -1.780553299276823E2  
 5.693750000000000E8    -2.210323065108274   1.797867524832847E2  
 5.700000000000000E8    -2.305119639193396   1.774176208422536E2  
 5.706250000000000E8    -2.266648279075853   1.750845212850029E2  
 5.712500000000000E8    -2.268893825558964   1.733864648093727E2  
 5.718750000000000E8    -2.274821843103740   1.715666574116283E2  
 5.725000000000000E8    -2.293467973041318   1.693776383438754E2  
 5.731250000000000E8    -2.337818804311731   1.672334104679075E2  
 5.737500000000000E8    -2.323534853825161   1.647515299551311E2  
 5.743750000000000E8    -2.329102222498475   1.630949246553726E2  
 5.750000000000000E8    -2.340220959163007   1.609934365460809E2  
 5.756250000000000E8    -2.364291691527643   1.589588716954768E2  
 5.762500000000000E8    -2.422362725167398   1.572846625052442E2  
 5.768750000000000E8    -2.370742845054830   1.553879068913195E2  
 5.775000000000000E8    -2.422046454798133   1.530768618421896E2  
 5.781250000000000E8    -2.467886223375072   1.509867828906881E2  
 5.787500000000000E8    -2.455177244052517   1.486250657026107E2  
 5.793750000000000E8    -2.521712346198374   1.469158209054768E2  
 5.800000000000000E8    -2.523910900101428   1.447925021589789E2  
 5.806250000000000E8    -2.577032574132327   1.428855148017155E2  
 5.812500000000000E8    -2.551477244901511   1.403379275756547E2  
 5.818750000000000E8    -2.577434705732303   1.389929826426569E2  
 5.825000000000000E8    -2.668479149096644   1.368840314585492E2  
 5.831250000000000E8    -2.706955679489648   1.352119145691811E2  
 5.837500000000000E8    -2.679185707425208   1.335843772674049E2  
 5.843750000000000E8    -2.610603944000257   1.314775904925849E2  
 5.850000000000000E8    -2.709957343215096   1.292993514254528E2  
 5.856250000000000E8    -2.672650577070848   1.271495963167235E2  
 5.862500000000000E8    -2.693237019915905   1.247332313033965E2  
 5.868750000000000E8    -2.700882633789060   1.237191062208044E2  
 5.875000000000000E8    -2.676620130493748   1.213491738853551E2  
 5.881250000000000E8    -2.739576230365607   1.196597567134354E2  
 5.887500000000000E8    -2.737634838137239   1.176584401230772E2  
 5.893750000000000E8    -2.760574322083813   1.151919441425509E2  
 5.900000000000000E8    -2.740996702660160   1.131028065702646E2  
 5.906250000000000E8    -2.790861889503502   1.115334091456103E2  
 5.912500000000000E8    -2.813273804749307   1.096840235376484E2  
 5.918750000000000E8    -2.820260145813313   1.073916410160378E2  
 5.925000000000000E8    -2.823588729074821   1.055076702434636E2  
 5.931250000000000E8    -2.846404764033713   1.029629416313802E2  
 5.937500000000000E8    -2.840256057172145   1.012133018548876E2  
 5.943750000000000E8    -2.821302879865864   9.923053700579857E1  
 5.950000000000000E8    -2.888112048870770   9.756135318318985E1  
 5.956250000000000E8    -2.926419810321376   9.535086697828919E1  
 5.962500000000000E8    -2.918812986719618   9.312123274431527E1  
 5.968750000000000E8    -2.951140506583645   9.096861275007201E1  
 5.975000000000000E8    -2.959280495793433   8.900384625395520E1  
 5.981250000000000E8    -2.935148132936148   8.713538650201251E1  
 5.987500000000000E8    -2.985373368894932   8.539548715740978E1  
 5.993750000000000E8    -2.990745575190215   8.313645897367120E1  
 6.000000000000000E8    -2.977417148258035   8.137303278864830E1  
 6.006250000000000E8    -2.974629533982355   7.918924925715781E1  
 6.012500000000000E8    -2.978724998292920   7.678638360738955E1  
 6.018750000000000E8    -3.065423344210299   7.540960925547203E1  
 6.025000000000000E8    -3.057196907466531   7.286466902099491E1  
 6.031250000000000E8    -3.112767086052932   7.146763116507023E1  
 6.037500000000000E8    -3.126408355167071   6.903797729441965E1  
 6.043750000000000E8    -3.148248078579722   6.688562743728714E1  
 6.050000000000000E8    -3.158715251196916   6.477997275959450E1  
 6.056250000000000E8    -3.153347368500271   6.331570391977719E1  
 6.062500000000000E8    -3.245209255520137   6.138429382316893E1  
 6.068750000000000E8    -3.173078722080972   5.903297566158972E1  
 6.075000000000000E8    -3.186492058774371   5.707315982728184E1  
 6.081250000000000E8    -3.266687361137493   5.508813175083062E1  
 6.087500000000000E8    -3.247569606998598   5.320524323165782E1  
 6.093750000000000E8    -3.324065028765494   5.106059291003300E1  
 6.100000000000000E8    -3.264602993811976   4.899104632043842E1  
 6.106250000000000E8    -3.316862185370003   4.700360265614533E1  
 6.112500000000000E8    -3.311171396101952   4.457443149244290E1  
 6.118750000000000E8    -3.370729814273641   4.335446206798263E1  
 6.125000000000000E8    -3.351953950485254   4.111416427191957E1  
 6.131250000000000E8    -3.326777033447238   3.898975411092977E1  
 6.137500000000000E8    -3.386313198098339   3.671005840809603E1  
 6.143750000000000E8    -3.475157581701240   3.499730602976233E1  
 6.150000000000000E8    -3.375355795169015   3.371748499407756E1  
 6.156250000000000E8    -3.457862888446135   3.103830115355924E1  
 6.162500000000000E8    -3.489789384201921   2.923578316596722E1  
 6.168750000000000E8    -3.537321507943120   2.679445316285514E1  
 6.175000000000000E8    -3.490167728840705   2.587732025485310E1  
 6.181250000000000E8    -3.413499102610840   2.339118622192105E1  
 6.187500000000000E8    -3.500958410939140   2.104965732375590E1  
 6.193750000000000E8    -3.525753844233214   1.984595844121985E1  
 6.200000000000000E8    -3.611193797072316   1.696671413157463E1  
 6.206250000000000E8    -3.577007477919408   1.557390722270791E1  
 6.212500000000000E8    -3.627048226294463   1.333071758067568E1  
 6.218750000000000E8    -3.592909795097072   1.065824398759896E1  
 6.225000000000000E8    -3.630172948775928   9.160271526773020  
 6.231250000000000E8    -3.641141947585586   6.670406234944368  
 6.237500000000000E8    -3.599307650745303   4.770371621400160  
 6.243750000000000E8    -3.741720944975263   1.893335323892049  
 6.250000000000000E8    -3.724784587598607   4.498747320794941E-1  
 6.256250000000000E8    -3.762965253548594  -2.045888709707637  
 6.262500000000000E8    -3.811952380783870  -3.885313568397018  
 6.268750000000000E8    -3.838151431868347  -6.453809087285577  
 6.275000000000000E8    -3.804966836296293  -8.048412994751393  
 6.281250000000000E8    -3.794671720732688  -1.065738981821053E1  
 6.287500000000000E8    -3.919379095505036  -1.231656592930799E1  
 6.293750000000000E8    -3.894463903866070  -1.519389487173817E1  
 6.300000000000000E8    -3.942247198251800  -1.753631412278623E1  
 6.306250000000000E8    -3.949725803373585  -1.892668510921936E1  
 6.312500000000000E8    -3.961662103916567  -2.216154579051468E1  
 6.318750000000000E8    -4.031824039265282  -2.384074028522702E1  
 6.325000000000000E8    -4.113520076460258  -2.671886133905373E1  
 6.331250000000000E8    -4.128198500052744  -2.801188507489066E1  
 6.337500000000000E8    -4.206604009232573  -3.019796825820090E1  
 6.343750000000000E8    -4.247906331620305  -3.318123287255465E1  
 6.350000000000000E8    -4.267946895605506  -3.531752231952989E1  
 6.356250000000000E8    -4.294247553712657  -3.747782141945277E1  
 6.362500000000000E8    -4.339553497966960  -4.020996400413392E1  
 6.368750000000000E8    -4.421433417545633  -4.220104188557646E1  
 6.375000000000000E8    -4.450751510740822  -4.434970100646178E1  
 6.381250000000000E8    -4.490582101031298  -4.632328930657663E1  
 6.387500000000000E8    -4.567793948471241  -4.898834819344855E1  
 6.393750000000000E8    -4.604270712941592  -5.158511009815317E1  
 6.400000000000000E8    -4.679809929923779  -5.339758303250907E1  
 6.406250000000000E8    -4.743235609272739  -5.648880420084858E1  
 6.412500000000000E8    -4.829387602562467  -5.880681079607238E1  
 6.418750000000000E8    -4.791102942221740  -5.964925169428273E1  
 6.425000000000000E8    -4.947584617615478  -6.236103433557610E1  
 6.431250000000000E8    -5.029164671977809  -6.477457039690071E1  
 6.437500000000000E8    -5.051443072655315  -6.737302608067316E1  
 6.443750000000000E8    -5.087200731746925  -6.823146225772128E1  
 6.450000000000000E8    -5.242546887596894  -7.172135114138447E1  
 6.456250000000000E8    -5.215177990045506  -7.367942920753897E1  
 6.462500000000000E8    -5.323533600541792  -7.704709233731703E1  
 6.468750000000000E8    -5.458675983994263  -7.869239471054914E1  
 6.475000000000000E8    -5.459954228833195  -8.074532826948990E1  
 6.481250000000000E8    -5.528607408715672  -8.337005682520226E1  
 6.487500000000000E8    -5.575660171849077  -8.531370052494920E1  
 6.493750000000000E8    -5.652892751618274  -8.794749046864824E1  
 6.500000000000000E8    -5.612871338356548  -9.016893032030247E1  
 6.506250000000000E8    -5.843281742156630  -9.259496462688965E1  
 6.512500000000000E8    -5.833848801640253  -9.544770662487512E1  
 6.518750000000000E8    -5.898798016909572  -9.711423643442546E1  
 6.525000000000000E8    -5.969246664885545  -9.944062950410924E1  
 6.531250000000000E8    -6.072243891329354  -1.015808659491825E2  
 6.537500000000000E8    -6.216553553369042  -1.037099697780931E2  
 6.543750000000000E8    -6.326478700515155  -1.061610554326579E2  
 6.550000000000000E8    -6.329625273784332  -1.090737716166726E2  
 6.556250000000000E8    -6.393951747793675  -1.115438662275559E2  
 6.562500000000000E8    -6.498347598810769  -1.143486538996904E2  
 6.568750000000000E8    -6.581211312712203  -1.152097997718962E2  
 6.575000000000000E8    -6.584414854461272  -1.177037704869770E2  
 6.581250000000000E8    -6.603405572851854  -1.200108698596273E2  
 6.587500000000000E8    -6.691398833691494  -1.222392444053877E2  
 6.593750000000000E8    -6.718015010410136  -1.248385966290652E2  
 6.600000000000000E8    -6.810463940879764  -1.273559893216992E2  
 6.606250000000000E8    -6.908244681138783  -1.292287925356417E2  
 6.612500000000000E8    -6.869974526440170  -1.319061520819348E2  
 6.618750000000000E8    -6.951395564076468  -1.332693990235010E2  
 6.625000000000000E8    -7.024376431457934  -1.369811169583340E2  
 6.631250000000000E8    -7.019550335866013  -1.382876144695990E2  
 6.637500000000000E8    -7.032817719383229  -1.417300858883517E2  
 6.643750000000000E8    -7.110427725945193  -1.437885326156699E2  
 6.650000000000000E8    -7.112003088893499  -1.453493743586638E2  
 6.656250000000000E8    -7.249076464942957  -1.481102157174598E2  
 6.662500000000000E8    -7.229741813267696  -1.503458429849663E2  
 6.668750000000000E8    -7.198427364773539  -1.531288029188695E2  
 6.675000000000000E8    -7.314955345220240  -1.555150040926164E2  
 6.681250000000000E8    -7.349675103214601  -1.570521489570834E2  
 6.687500000000000E8    -7.318039902372869  -1.605362080367525E2  
 6.693750000000000E8    -7.548358388294934  -1.623061037705657E2  
 6.700000000000000E8    -7.522111362514649  -1.648208005515319E2  
 6.706250000000000E8    -7.417756756512808  -1.671070646825062E2  
 6.712500000000000E8    -7.468945643271933  -1.703223037805558E2  
 6.718750000000000E8    -7.384816744212573  -1.727833647172797E2  
 6.725000000000000E8    -7.337010051068257  -1.756147433918539E2  
 6.731250000000000E8    -7.449508950848027  -1.780508380751097E2  
 6.737500000000000E8    -7.475799156889092   1.786422205082565E2  
 6.743750000000000E8    -7.484525383716012   1.763371487661494E2  
 6.750000000000000E8    -7.389041355151107   1.733286095270131E2  
 6.756250000000000E8    -7.464732371280150   1.710767188100240E2  
 6.762500000000000E8    -7.480609156170691   1.677030035066436E2  
 6.768750000000000E8    -7.510573425529336   1.651139945066988E2  
 6.775000000000000E8    -7.578102573034980   1.628653181620851E2  
 6.781250000000000E8    -7.567190351516182   1.598595005014810E2  
 6.787500000000000E8    -7.629466991292483   1.565939839461979E2  
 6.793750000000000E8    -7.583497053813367   1.532365341930575E2  
 6.800000000000000E8    -7.720743042634623   1.507463038236380E2  
 6.806250000000000E8    -7.627790149324592   1.483927334908557E2  
 6.812500000000000E8    -7.641414661542386   1.452307299981200E2  
 6.818750000000000E8    -7.738111568691646   1.427430999189437E2  
 6.825000000000000E8    -7.590963517357541   1.398954859500510E2  
 6.831250000000000E8    -7.714627219118865   1.366480616356612E2  
 6.837500000000000E8    -7.811573580354346   1.334873906777110E2  
 6.843750000000000E8    -7.739478167858285   1.304535196957544E2  
